#Parameters = {CPWG_cut=1.25; GND_len=30; GND_wid=5; Strip_wid=0.85; arr1_posx=10; clrGND=5; couplline_len1=0; couplline_len2=2; couplline_len3=1; couplline_pos=1.5; dip_len=3; dip_pos=3; dip_wid=0.4; dipext_len=2; feed_pos=0.3; gap=0.2; notch_len=2; patch_wid=2.6; sub_h=0.5; via_num=10}
#"Frequency / GHz"	"R1_0_0 [1] [Real/Imaginary Part] [Re]"	"R1_0_0 [1] [Real/Imaginary Part] [Im]"
#-------------------------------------------------------------------------------------------------
10.000000000000	0.013535913300677	0.0056455837585066
10.030000000000	0.013965419229567	0.0054588764787710
10.060000000000	0.014403258085417	0.0052566830606576
10.090000000000	0.014850980241125	0.0050394752561098
10.120000000000	0.015310720695879	0.0048069961149018
10.150000000000	0.015784968822683	0.0045580640396848
10.180000000000	0.016276284608996	0.0042904475186823
10.210000000000	0.016786982866206	0.0040008240519168
10.240000000000	0.017318810114935	0.0036848303661960
10.270000000000	0.017872640200323	0.0033372038690167
10.300000000000	0.018448214007389	0.0029520079648457
10.330000000000	0.019043945937747	0.0025229269162199
10.360000000000	0.019656815237654	0.0020436099259360
10.390000000000	0.020282354141657	0.0015080395342932
10.420000000000	0.020914737549683	0.00091089665780041
10.450000000000	0.021546971116638	0.00024789390442343
10.480000000000	0.022171166788063	-0.00048394970462860
10.510000000000	0.022778887562723	-0.0012861158479787
10.540000000000	0.023361537172923	-0.0021584935454478
10.570000000000	0.023910765942143	-0.0030993959172932
10.600000000000	0.024418861692498	-0.0041056894797552
10.630000000000	0.024879094474687	-0.0051730297372919
10.660000000000	0.025285986160970	-0.0062961883182588
10.690000000000	0.025635480485649	-0.0074694491689274
10.720000000000	0.025924995677222	-0.0086870449676818
10.750000000000	0.026153349987493	-0.0099436004596572
10.780000000000	0.026320559644559	-0.011234547231662
10.810000000000	0.026427518406617	-0.012556474783995
10.840000000000	0.026475577292381	-0.013907385672205
10.870000000000	0.026466051531317	-0.015286827868794
10.900000000000	0.026399688680448	-0.016695885036135
10.930000000000	0.026276136654450	-0.018137014651654
10.960000000000	0.026093452704982	-0.019613734297684
10.990000000000	0.025847693919978	-0.021130167241396
11.020000000000	0.025532626533333	-0.022690468957669
11.050000000000	0.025139585370572	-0.024298165763363
11.080000000000	0.024657506422242	-0.025955444560595
11.110000000000	0.024073145316958	-0.027662438252101
11.140000000000	0.023371482980117	-0.029416554255066
11.170000000000	0.022536307730292	-0.031211893432621
11.200000000000	0.021550951251977	-0.033038803606706
11.230000000000	0.020399145060496	-0.034883605733108
11.260000000000	0.019065954961994	-0.036728522123071
11.290000000000	0.017538744229733	-0.038551825274654
11.320000000000	0.015808112248886	-0.040328213564735
11.350000000000	0.013868754534120	-0.042029406987292
11.380000000000	0.011720192411733	-0.043624943101969
11.410000000000	0.0093673261921456	-0.045083141182151
11.440000000000	0.0068207740511104	-0.046372191982359
11.470000000000	0.0040969696201170	-0.047461322246172
11.500000000000	0.0012180038364988	-0.048321977576792
11.530000000000	-0.0017887898128711	-0.048928964951785
11.560000000000	-0.0048914937053006	-0.049261497147125
11.590000000000	-0.0080544819753866	-0.049304085605632
11.620000000000	-0.011239475849433	-0.049047235602696
11.650000000000	-0.014406730590912	-0.048487907503932
11.680000000000	-0.017516299074058	-0.047629719893278
11.710000000000	-0.020529312899342	-0.046482883673240
11.740000000000	-0.023409221133870	-0.045063870122673
11.770000000000	-0.026122929226807	-0.043394829534988
11.800000000000	-0.028641786241856	-0.041502789667641
11.830000000000	-0.030942376907956	-0.039418674099104
11.860000000000	-0.033007085597778	-0.037176189113263
11.890000000000	-0.034824411557430	-0.034810633463162
11.920000000000	-0.036389027801733	-0.032357688029855
11.950000000000	-0.037701589291296	-0.029852241899649
11.980000000000	-0.038768308563853	-0.027327307834989
12.010000000000	-0.039600328202173	-0.024813073791159
12.040000000000	-0.040212928781176	-0.022336128470608
12.070000000000	-0.040624617776784	-0.019918888474486
12.100000000000	-0.040856149024756	-0.017579243060913
12.130000000000	-0.040929523548369	-0.015330420552399
12.160000000000	-0.040867020964027	-0.013181068753479
12.190000000000	-0.040690306426931	-0.011135531005344
12.220000000000	-0.040419651548402	-0.0091942902982132
12.250000000000	-0.040073299379363	-0.0073545466513170
12.280000000000	-0.039666993977511	-0.0056108880835699
12.310000000000	-0.039213684876582	-0.0039560131100512
12.340000000000	-0.038723406583649	-0.0023814628266530
12.370000000000	-0.038203323644480	-0.00087832315054293
12.400000000000	-0.037657923372722	0.00056213760814280
12.430000000000	-0.037089331475494	0.0019479243485006
12.460000000000	-0.036497720846139	0.0032858849054491
12.490000000000	-0.035881780920976	0.0045814065896075
12.520000000000	-0.035239214258074	0.0058382438048430
12.550000000000	-0.034567228303748	0.0070584729451142
12.580000000000	-0.033862993454856	0.0082425635438940
12.610000000000	-0.033124043186563	0.0093895486485617
12.640000000000	-0.032348597802667	0.010497272910954
12.670000000000	-0.031535799837215	0.011562694101510
12.700000000000	-0.030685855833003	0.012582212726067
12.730000000000	-0.029800085699950	0.013552005092222
12.760000000000	-0.028880886711374	0.014468337370283
12.790000000000	-0.027931624093043	0.015327841666784
12.820000000000	-0.026956463847283	0.016127739552793
12.850000000000	-0.025960165778392	0.016866003499774
12.880000000000	-0.024947855593596	0.017541451891862
12.910000000000	-0.023924794492280	0.018153778336395
12.940000000000	-0.022896162962040	0.018703520551291
12.970000000000	-0.021866872785035	0.019191977892063
13.000000000000	-0.020841417790261	0.019621089388721
13.030000000000	-0.019823769968968	0.019993285871130
13.060000000000	-0.018817323514611	0.020311330333930
13.090000000000	-0.017824885457079	0.020578160174747
13.120000000000	-0.016848708102739	0.020796743452722
13.150000000000	-0.015890555687079	0.020969959040221
13.180000000000	-0.014951795653233	0.021100507705510
13.210000000000	-0.014033503875769	0.021190858020392
13.240000000000	-0.013136572971219	0.021243227792247
13.270000000000	-0.012261813522830	0.021259598719560
13.300000000000	-0.011410039483948	0.021241759378151
13.330000000000	-0.010582131050826	0.021191369632282
13.360000000000	-0.0097790707155509	0.021110038246446
13.390000000000	-0.0090019508103195	0.020999404906397
13.420000000000	-0.0082519534215922	0.020861218037619
13.450000000000	-0.0075303058884139	0.020697400675454
13.480000000000	-0.0068382170346768	0.020510098083765
13.510000000000	-0.0061768006919423	0.020301702691051
13.540000000000	-0.0055469938674500	0.020074854042203
13.570000000000	-0.0049494770723296	0.019832413668524
13.600000000000	-0.0043846038700221	0.019577416880097
13.630000000000	-0.0038523457031626	0.019313005322844
13.660000000000	-0.0033522566162352	0.019042345586297
13.690000000000	-0.0028834607472402	0.018768540103318
13.720000000000	-0.0024446635671290	0.018494536999030
13.750000000000	-0.0020341859575019	0.018223045416700
13.780000000000	-0.0016500184834197	0.017956462210022
13.810000000000	-0.0012898917680519	0.017696814818836
13.840000000000	-0.00095135780968964	0.017445723743765
13.870000000000	-0.00063187646491536	0.017204386430297
13.900000000000	-0.00032890118148597	0.016973582700003
13.930000000000	-3.9958389202455e-05	0.016753700260468
13.960000000000	0.00023728430090864	0.016544777408759
13.990000000000	0.00050496485755843	0.016346558918226
14.020000000000	0.00076499099958491	0.016158560339280
14.050000000000	0.0010190227831835	0.015980135593587
14.080000000000	0.0012684731683880	0.015810542805596
14.110000000000	0.0015145247932490	0.015649003769847
14.140000000000	0.0017581600613200	0.015494753241815
14.170000000000	0.0020002008148506	0.015347075284554
14.200000000000	0.0022413533742753	0.015205325107096
14.230000000000	0.0024822545960808	0.015068936088847
14.260000000000	0.0027235148276111	0.014937412893211
14.290000000000	0.0029657541821601	0.014810312638098
14.320000000000	0.0032096293599632	0.014687216931767
14.350000000000	0.0034558492213415	0.014567698142366
14.380000000000	0.0037051783871134	0.014451283517092
14.410000000000	0.0039584292050319	0.014337420697504
14.440000000000	0.0042164433905358	0.014225447813565
14.470000000000	0.0044800654482915	0.014114570726032
14.500000000000	0.0047501105482668	0.014003849189825
14.530000000000	0.0050273298288087	0.013892192807667
14.560000000000	0.0053123761161013	0.013778366717426
14.590000000000	0.0056057727958972	0.013661006090823
14.620000000000	0.0059078880838476	0.013538637789939
14.650000000000	0.0062189162688492	0.013409706991704
14.680000000000	0.0065388667175885	0.013272606290690
14.710000000000	0.0068675606040719	0.013125704746649
14.740000000000	0.0072046345430621	0.012967374551828
14.770000000000	0.0075495496334999	0.012796013428377
14.800000000000	0.0079016039184489	0.012610061482562
14.830000000000	0.0082599459867828	0.012408011979179
14.860000000000	0.0086235874038156	0.012188416285361
14.890000000000	0.0089914118664973	0.011949883993026
14.920000000000	0.0093621794150098	0.011691079891150
14.950000000000	0.0097345246576293	0.011410719959041
14.980000000000	0.010106948723930	0.011107568840140
15.010000000000	0.010477805484948	0.010780441301095
15.040000000000	0.010845283393647	0.010428209972108
15.070000000000	0.011207385030546	0.010049821213033
15.100000000000	0.011561907019222	0.0096443202872527
15.130000000000	0.011906423347807	0.0092108862025136
15.160000000000	0.012238275255090	0.0087488756593010
15.190000000000	0.012554570692696	0.0082578746071054
15.220000000000	0.012852195958960	0.0077377550244175
15.250000000000	0.013127841438118	0.0071887337840848
15.280000000000	0.013378042512975	0.0066114299076175
15.310000000000	0.013599235710012	0.0060069162020334
15.340000000000	0.013787829055039	0.0053767612445618
15.370000000000	0.013940284544055	0.0047230579467897
15.400000000000	0.014053209648244	0.0040484354813109
15.430000000000	0.014123453948814	0.0033560521597435
15.460000000000	0.014148206401260	0.0026495678608699
15.490000000000	0.014125088407889	0.0019330957555911
15.520000000000	0.014052237861722	0.0012111342843860
15.550000000000	0.013928379621559	0.00048848153078933
15.580000000000	0.013752878472755	-0.00022986478056949
15.610000000000	0.013525771485259	-0.00093881752550370
15.640000000000	0.013247777745411	-0.0016333158587874
15.670000000000	0.012920284641812	-0.0023084411471951
15.700000000000	0.012545311149633	-0.0029595279080514
15.730000000000	0.012125449799115	-0.0035822647558103
15.760000000000	0.011663790152012	-0.0041727809117385
15.790000000000	0.011163827570935	-0.0047277146477785
15.820000000000	0.010629361790394	-0.0052442610599327
15.850000000000	0.010064390241116	-0.0057201977303027
15.880000000000	0.0094730012167433	-0.0061538880629465
15.910000000000	0.0088592718014279	-0.0065442632867441
15.940000000000	0.0082271750160218	-0.0068907852309306
15.970000000000	0.0075804999269200	-0.0071933929264168
16.000000000000	0.0069227875486762	-0.0074524368118593
16.030000000000	0.0062572843252027	-0.0076686047875682
16.060000000000	0.0055869138677596	-0.0078428445416335
16.090000000000	0.0049142665361505	-0.0079762864700200
16.120000000000	0.0042416054442286	-0.0080701711442724
16.150000000000	0.0035708866153097	-0.0081257846830878
16.180000000000	0.0029037903579760	-0.0081444046081847
16.210000000000	0.0022417605128206	-0.0081272578720623
16.240000000000	0.0015860480527363	-0.0080754918026754
16.270000000000	0.00093775560172287	-0.0079901577858474
16.300000000000	0.00029787975034361	-0.0078722066644066
16.330000000000	-0.00033265144538048	-0.0077224941288492
16.360000000000	-0.00095294773869071	-0.0075417938507620
16.390000000000	-0.0015621339504921	-0.0073308157950728
16.420000000000	-0.0021593356445838	-0.0070902270515454
16.450000000000	-0.0027436729064394	-0.0068206726441085
16.480000000000	-0.0033142612517479	-0.0065227940868751
16.510000000000	-0.0038702181627746	-0.0061972439228386
16.540000000000	-0.0044106733890429	-0.0058446950593026
16.570000000000	-0.0049347809737206	-0.0054658443506176
16.600000000000	-0.0054417309827971	-0.0050614105188180
16.630000000000	-0.0059307591098194	-0.0046321270932406
16.660000000000	-0.0064011526797533	-0.0041787315441014
16.690000000000	-0.0068522520451044	-0.0037019521447245
16.720000000000	-0.0072834469109391	-0.0032024942971668
16.750000000000	-0.0076941676935323	-0.0026810280847212
16.780000000000	-0.0080838725599874	-0.0021381786748786
16.810000000000	-0.0084520312667536	-0.0015745209042839
16.840000000000	-0.0087981072738638	-0.00099057896166379
16.870000000000	-0.0091215398293723	-0.00038683158391020
16.900000000000	-0.0094217277774591	0.00023627736089759
16.930000000000	-0.0096980167399320	0.00087832356437852
16.960000000000	-0.0099496910637982	0.0015388833851225
16.990000000000	-0.010175971539102	0.0022175129019867
17.020000000000	-0.010376019403858	0.0029137267022735
17.050000000000	-0.010548946607076	0.0036269783020538
17.080000000000	-0.010693831741662	0.0043566440428737
17.110000000000	-0.010809740532468	0.0051020120970240
17.140000000000	-0.010895749314465	0.0058622778575607
17.170000000000	-0.010950969599547	0.0066365465158976
17.200000000000	-0.010974571636416	0.0074238430749058
17.230000000000	-0.010965804834109	0.0082231294513919
17.260000000000	-0.010924013051326	0.0090333277341179
17.290000000000	-0.010848643043398	0.0098533481273777
17.320000000000	-0.010739244787192	0.010682119667010
17.350000000000	-0.010595462941444	0.011518621480174
17.380000000000	-0.010417019307910	0.012361912197359
17.410000000000	-0.010203686793746	0.013211155128742
17.440000000000	-0.0099552559922649	0.014065636988778
17.470000000000	-0.0096714960534949	0.014924778282047
17.500000000000	-0.0093521119682110	0.015788133927799
17.530000000000	-0.0089967007073187	0.016655383268573
17.560000000000	-0.0086047088202971	0.017526309240612
17.590000000000	-0.0081753940908586	0.018400767137215
17.620000000000	-0.0077077936759649	0.019278644026123
17.650000000000	-0.0072007008285593	0.020159810446131
17.680000000000	-0.0066526518481474	0.021044066469101
17.710000000000	-0.0060619243488089	0.021931084541969
17.740000000000	-0.0054265473198683	0.022820351699429
17.770000000000	-0.0047443228222057	0.023711113753096
17.800000000000	-0.0040128585553675	0.024602323919725
17.830000000000	-0.0032296099868854	0.025492598063324
17.860000000000	-0.0023919302896669	0.026380178317065
17.890000000000	-0.0014971260123064	0.027262906352210
17.920000000000	-0.00054251622752431	0.028138207009480
17.950000000000	0.00047450712805018	0.029003082442603
17.980000000000	0.0015564198982069	0.029854116383326
18.010000000000	0.0027055092708257	0.030687487657554
18.040000000000	0.0039238218500826	0.031498991693772
18.070000000000	0.0052131174044615	0.032284068489795
18.100000000000	0.0065748289941477	0.033037835355556
18.130000000000	0.0080100297118851	0.033755122731399
18.160000000000	0.0095194058308592	0.034430511487049
18.190000000000	0.011103235772863	0.035058370320628
18.220000000000	0.012761374015302	0.035632892177088
18.250000000000	0.014493238864295	0.036148128962820
18.280000000000	0.016297802942398	0.036598024216349
18.310000000000	0.018173585273391	0.036976443771725
18.340000000000	0.020118643984396	0.037277204790870
18.370000000000	0.022130568870850	0.037494103817452
18.400000000000	0.024206473359625	0.037620944697291
18.430000000000	0.026342985732789	0.037651567306034
18.460000000000	0.028536239809881	0.037579878018868
18.490000000000	0.030781865601213	0.037399882753114
18.520000000000	0.033074980712229	0.037105723223811
18.550000000000	0.035410183477616	0.036691716792969
18.580000000000	0.037781548918024	0.036152399988132
18.610000000000	0.040182628633606	0.035482575441365
18.640000000000	0.042606455676502	0.034677361682937
18.670000000000	0.045045555285914	0.033732244940609
18.700000000000	0.047491962138291	0.032643131868068
18.730000000000	0.049937244480891	0.031406401972171
18.760000000000	0.052372535202781	0.030018958439374
18.790000000000	0.054788569578500	0.028478276081032
18.820000000000	0.057175729120993	0.026782445221926
18.850000000000	0.059524090725076	0.024930210536232
18.880000000000	0.061823480089134	0.022921004074159
18.910000000000	0.064063528284528	0.020754972000146
18.940000000000	0.066233730305928	0.018432994856506
18.970000000000	0.068323504481503	0.015956701450826
19.000000000000	0.070322251742549	0.013328476718382
19.030000000000	0.072219413934716	0.010551464112780
19.060000000000	0.074004530579387	0.0076295632139135
19.090000000000	0.075667293742515	0.0045674233032023
19.120000000000	0.077197600916293	0.0013704336393517
19.150000000000	0.078585606043755	-0.0019552889219195
19.180000000000	0.079821768997346	-0.0054029144731479
19.210000000000	0.080896903943376	-0.0089649164731303
19.240000000000	0.081802227074028	-0.012633089970402
19.270000000000	0.082529404162575	-0.016398571793708
19.300000000000	0.083070598297845	-0.020251863080529
19.330000000000	0.083418517989400	-0.024182854683620
19.360000000000	0.083566465619967	-0.028180856105681
19.390000000000	0.083508385975955	-0.032234628650564
19.420000000000	0.083238914332693	-0.036332423438709
19.450000000000	0.082753423332527	-0.040462024814632
19.480000000000	0.082048067694008	-0.044610799481906
19.510000000000	0.081119825649927	-0.048765751449443
19.540000000000	0.079966535946880	-0.052913582580865
19.570000000000	0.078586929259688	-0.057040758229216
19.600000000000	0.076980652983778	-0.061133577137738
19.630000000000	0.075148288563535	-0.065178244519404
19.660000000000	0.073091360783435	-0.069160947017486
19.690000000000	0.070812338773663	-0.073067928116740
19.720000000000	0.068314628839731	-0.076885562534568
19.750000000000	0.065602559589510	-0.080600428181642
19.780000000000	0.062681360172484	-0.084199374441977
19.810000000000	0.059557132736982	-0.087669585775561
19.840000000000	0.056236820426200	-0.090998639976632
19.870000000000	0.052728172352707	-0.094174560805331
19.900000000000	0.049039706999596	-0.097185865121919
19.930000000000	0.045180675388605	-0.10002160506003
19.960000000000	0.041161025133961	-0.10267140614623
19.990000000000	0.036991366176606	-0.10512550257634
20.020000000000	0.032682938586679	-0.10737477106711
20.050000000000	0.028247582359485	-0.10941076479302
20.080000000000	0.023697708643961	-0.11122574887791
20.110000000000	0.019046271368761	-0.11281273873470
20.140000000000	0.014306737806162	-0.11416554223757
20.170000000000	0.0094930562732517	-0.11527880628357
20.200000000000	0.0046196189441887	-0.11614806777845
20.230000000000	-0.00029878233856841	-0.11676980849415
20.260000000000	-0.0052470092962281	-0.11714151263117
20.290000000000	-0.010209641298849	-0.11726172531748
20.320000000000	-0.015171051723367	-0.11713010972921
20.350000000000	-0.020115497470624	-0.11674750006662
20.380000000000	-0.025027221875489	-0.11611594729807
20.410000000000	-0.029890570507255	-0.11523875442343
20.440000000000	-0.034690118576109	-0.11412049802710
20.470000000000	-0.039410807880176	-0.11276703309857
20.500000000000	-0.044038090493084	-0.11118547849476
20.530000000000	-0.048558075749348	-0.10938418098848
20.560000000000	-0.052957676575260	-0.10737265656899
20.590000000000	-0.057224750871133	-0.10516150849879
20.620000000000	-0.061348233502121	-0.10276232254458
20.650000000000	-0.065318254514676	-0.10018754074310
20.680000000000	-0.069126239467280	-0.097450315984431
20.710000000000	-0.072764988238991	-0.094564350547797
20.740000000000	-0.076228729337340	-0.091543722461406
20.770000000000	-0.079513147537835	-0.088402704139295
20.800000000000	-0.082615383611496	-0.085155578142275
20.830000000000	-0.085534005888967	-0.081816455096031
20.860000000000	-0.088268954420580	-0.078399098766872
20.890000000000	-0.090821459471312	-0.074916763046766
