#Parameters = {CPWG_cut=1.25; GND_len=30; GND_wid=5; Strip_wid=0.85; arr1_posx=10; clrGND=5; couplline_len1=0; couplline_len2=2; couplline_len3=1; couplline_pos=1.5; dip_len=3; dip_pos=3; dip_wid=0.4; dipext_len=2; feed_pos=0.3; gap=0.2; notch_len=2; patch_wid=2.6; sub_h=0.5; via_num=10}
#"Frequency / GHz"	"R1_3_1 [1] [Real/Imaginary Part] [Re]"	"R1_3_1 [1] [Real/Imaginary Part] [Im]"
#-------------------------------------------------------------------------------------------------
10.000000000000	-0.035039155394887	0.010024780473118
10.030000000000	-0.035370404505524	0.010739072278616
10.060000000000	-0.035690477373475	0.011464408326867
10.090000000000	-0.036003157914712	0.012197567931987
10.120000000000	-0.036313441545004	0.012936749719510
10.150000000000	-0.036627099664921	0.013681908242994
10.180000000000	-0.036950160906397	0.014434958683466
10.210000000000	-0.037288348688457	0.015199830399575
10.240000000000	-0.037646518750688	0.015982361743014
10.270000000000	-0.038028141092937	0.016790040978432
10.300000000000	-0.038434868039853	0.017631610399298
10.330000000000	-0.038866224124482	0.018516561860903
10.360000000000	-0.039319444555869	0.019454561081463
10.390000000000	-0.039789477838267	0.020454844453730
10.420000000000	-0.040269155462725	0.021525635220959
10.450000000000	-0.040749518436543	0.022673625399785
10.480000000000	-0.041220277747744	0.023903565741438
10.510000000000	-0.041670374656417	0.025217998545537
10.540000000000	-0.042088597846447	0.026617157769417
10.570000000000	-0.042464208685394	0.028099048327446
10.600000000000	-0.042787523638414	0.029659702641620
10.630000000000	-0.043050404520291	0.031293598392290
10.660000000000	-0.043246612726636	0.032994208072606
10.690000000000	-0.043371992559513	0.034754639384194
10.720000000000	-0.043424460689553	0.036568316628809
10.750000000000	-0.043403792885415	0.038429647779952
10.780000000000	-0.043311214427679	0.040334620358675
10.810000000000	-0.043148816037093	0.042281271818590
10.840000000000	-0.042918831581742	0.044269986805903
10.870000000000	-0.042622826224873	0.046303584050529
10.900000000000	-0.042260853094533	0.048387169143153
10.930000000000	-0.041830642245247	0.050527745208446
10.960000000000	-0.041326887130253	0.052733590469374
10.990000000000	-0.040740690781211	0.055013428777298
11.020000000000	-0.040059226472833	0.057375435192290
11.050000000000	-0.039265656204939	0.059826132521656
11.080000000000	-0.038339335515641	0.062369245370047
11.110000000000	-0.037256315836987	0.065004584924362
11.140000000000	-0.035990136890876	0.067727039841971
11.170000000000	-0.034512882683112	0.070525745972377
11.200000000000	-0.032796456706862	0.073383500269860
11.230000000000	-0.030814016188178	0.076276472506927
11.260000000000	-0.028541492647794	0.079174252922483
11.290000000000	-0.025959117574554	0.082040255630108
11.320000000000	-0.023052868217186	0.084832477558049
11.350000000000	-0.019815749722371	0.087504592103859
11.380000000000	-0.016248836085989	0.090007336818956
11.410000000000	-0.012362003334680	0.092290136513485
11.440000000000	-0.0081743034150675	0.094302888298853
11.470000000000	-0.0037139455790724	0.095997824191416
11.500000000000	0.00098212744647092	0.097331360671510
11.530000000000	0.0058690597280128	0.098265843429817
11.560000000000	0.010895268833610	0.098771099532248
11.590000000000	0.016003949276214	0.098825718176598
11.620000000000	0.021134825939646	0.098417994583824
11.650000000000	0.026226077331509	0.097546488584692
11.680000000000	0.031216339507448	0.096220169136783
11.710000000000	0.036046697406421	0.094458137194502
11.740000000000	0.040662571323702	0.092288940835060
11.770000000000	0.045015412220692	0.089749517091434
11.800000000000	0.049064130129248	0.086883813406126
11.830000000000	0.052776194390847	0.083741156983689
11.860000000000	0.056128361996385	0.080374451771012
11.890000000000	0.059107009818288	0.076838289762335
11.920000000000	0.061708066915292	0.073187065513862
11.950000000000	0.063936563179504	0.069473180149451
11.980000000000	0.065805829268838	0.065745414011909
12.010000000000	0.067336399020961	0.062047535987406
12.040000000000	0.068554678541691	0.058417203144758
12.070000000000	0.069491455279811	0.054885187595031
12.100000000000	0.070180325264640	0.051474949405651
12.130000000000	0.070656117175664	0.048202556055930
12.160000000000	0.070953388175677	0.045076931334818
12.190000000000	0.071105058851988	0.042100400711182
12.220000000000	0.071141243764431	0.039269486868948
12.250000000000	0.071088320750223	0.036575898930418
12.280000000000	0.070968267153361	0.034007652315237
12.310000000000	0.070798275456594	0.031550253395441
12.340000000000	0.070590645321609	0.029187884073899
12.370000000000	0.070352934655592	0.026904525880647
12.400000000000	0.070088339780604	0.024684970702819
12.430000000000	0.069796264699237	0.022515675235427
12.460000000000	0.069473032261208	0.020385427945845
12.490000000000	0.069112685980799	0.018285810004494
12.520000000000	0.068707830374781	0.016211444454856
12.550000000000	0.068250459832998	0.014160040120740
12.580000000000	0.067732730875553	0.012132247701348
12.610000000000	0.067147639725327	0.010131354626174
12.640000000000	0.066489575860096	0.0081628521187755
12.670000000000	0.065754731968328	0.0062339122995829
12.700000000000	0.064941360859160	0.0043528149605263
12.730000000000	0.064049879733602	0.0025283629487912
12.760000000000	0.063082831233604	0.00076932213219809
12.790000000000	0.062044718363376	-0.00091608296215922
12.820000000000	0.060941736354915	-0.0025205930935346
12.850000000000	0.059781428591190	-0.0040382404048139
12.880000000000	0.058572295708514	-0.0054645669781040
12.910000000000	0.057323387012765	-0.0067967338040932
12.940000000000	0.056043901524333	-0.0080335252038916
12.970000000000	0.054742822581439	-0.0091752598558755
13.000000000000	0.053428605328154	-0.010223624414082
13.030000000000	0.052108930992018	-0.011181449054666
13.060000000000	0.050790536038549	-0.012052446061360
13.090000000000	0.049479118491298	-0.012840932778269
13.120000000000	0.048179318307639	-0.013551559038643
13.150000000000	0.046894764026746	-0.014189056726894
13.180000000000	0.045628174207519	-0.014758025719664
13.210000000000	0.044381499615556	-0.015262766394227
13.240000000000	0.043156090774246	-0.015707164521634
13.270000000000	0.041952875351919	-0.016094630004968
13.300000000000	0.040772530819778	-0.016428086879712
13.330000000000	0.039615639720874	-0.016710008517805
13.360000000000	0.038482817523312	-0.016942489263873
13.390000000000	0.037374806142460	-0.017127341907132
13.420000000000	0.036292529545131	-0.017266209509128
13.450000000000	0.035237111136917	-0.017360680148933
13.480000000000	0.034209855648886	-0.017412394032554
13.510000000000	0.033212200786272	-0.017423134007780
13.540000000000	0.032245645833161	-0.017394892654888
13.570000000000	0.031311665632196	-0.017329911588362
13.600000000000	0.030411618844167	-0.017230691197162
13.630000000000	0.029546659161460	-0.017099971569882
13.660000000000	0.028717657274949	-0.016940687616044
13.690000000000	0.027925139990124	-0.016755903257176
13.720000000000	0.027169251099378	-0.016548730913481
13.750000000000	0.026449736605169	-0.016322243290878
13.780000000000	0.025765954819433	-0.016079384663109
13.810000000000	0.025116909896513	-0.015822888472429
13.840000000000	0.024501305629533	-0.015555207207616
13.870000000000	0.023917614965566	-0.015278459258586
13.900000000000	0.023364159751109	-0.014994395913543
13.930000000000	0.022839194747446	-0.014704389990062
13.960000000000	0.022340989958682	-0.014409445909650
13.990000000000	0.021867905761911	-0.014110229461290
14.020000000000	0.021418456156947	-0.013807114161321
14.050000000000	0.020991356576108	-0.013500240088754
14.080000000000	0.020585554011001	-0.013189580412527
14.110000000000	0.020200238613678	-0.012875010555297
14.140000000000	0.019834837305810	-0.012556375051977
14.170000000000	0.019488991182538	-0.012233547627255
14.200000000000	0.019162519543742	-0.011906480778040
14.230000000000	0.018855374161821	-0.011575242129769
14.260000000000	0.018567587862511	-0.011240035953836
14.290000000000	0.018299221640026	-0.010901209397402
14.320000000000	0.018050314360207	-0.010559244099012
14.350000000000	0.017820838658060	-0.010214734865587
14.380000000000	0.017610665959667	-0.0098683579039095
14.410000000000	0.017419542716884	-0.0095208316860004
14.440000000000	0.017247079008082	-0.0091728738561345
14.470000000000	0.017092749702993	-0.0088251576512011
14.500000000000	0.016955907484398	-0.0084782711192548
14.530000000000	0.016835806225561	-0.0081326820138705
14.560000000000	0.016731632589115	-0.0077887106588420
14.590000000000	0.016642543274817	-0.0074465123729737
14.620000000000	0.016567705117676	-0.0071060702773442
14.650000000000	0.016506335225642	-0.0067671985370280
14.680000000000	0.016457738532444	-0.0064295553713690
14.710000000000	0.016421340498572	-0.0060926645492633
14.740000000000	0.016396713183081	-0.0057559436055458
14.770000000000	0.016383593485727	-0.0054187366957908
14.800000000000	0.016381892974454	-0.0050803498603818
14.830000000000	0.016391699319655	-0.0047400864918734
14.860000000000	0.016413269910547	-0.0043972809774584
14.890000000000	0.016447018693779	-0.0040513287954938
14.920000000000	0.016493497623064	-0.0037017117484873
14.950000000000	0.016553374324475	-0.0033480174768840
14.980000000000	0.016627407659863	-0.0029899528791069
15.010000000000	0.016716422815954	-0.0026273515255387
15.040000000000	0.016821287374175	-0.0022601755638070
15.070000000000	0.016942889549066	-0.0018885129423585
15.100000000000	0.017082119449863	-0.0015125710096746
15.130000000000	0.017239853852170	-0.0011326676671500
15.160000000000	0.017416944596834	-0.00074922126359423
15.190000000000	0.017614210391518	-0.00036274032598200
15.220000000000	0.017832431503293	2.6185960193107e-05
15.250000000000	0.018072346618082	0.00041689585570144
15.280000000000	0.018334651018428	0.00080866138169871
15.310000000000	0.018619995200310	0.0012006927710153
15.340000000000	0.018928983110452	0.0015921412750970
15.370000000000	0.019262169328371	0.0019821007979177
15.400000000000	0.019620054726839	0.0023696090224082
15.430000000000	0.020003080399991	0.0027536488151080
15.460000000000	0.020411619926799	0.0031331507318689
15.490000000000	0.020845970314435	0.0035069973992211
15.520000000000	0.021306342217162	0.0038740304170675
15.550000000000	0.021792850230546	0.0042330602294654
15.580000000000	0.022305504200112	0.0045828791573747
15.610000000000	0.022844202545862	0.0049222775005649
15.640000000000	0.023408728582601	0.0052500623178356
15.670000000000	0.023998750710605	0.0055650782086502
15.700000000000	0.024613827167602	0.0058662291677746
15.730000000000	0.025253415783196	0.0061525003875888
15.760000000000	0.025916888876970	0.0064229787566780
15.790000000000	0.026603553112066	0.0066768707595644
15.820000000000	0.027312673779310	0.0069135165267325
15.850000000000	0.028043502666392	0.0071323989161466
15.880000000000	0.028795308384628	0.0073331467210445
15.910000000000	0.029567407802672	0.0075155313819948
15.940000000000	0.030359197088797	0.0076794569173165
15.970000000000	0.031170180802913	0.0078249431545843
16.000000000000	0.031999997512655	0.0079521027240362
16.030000000000	0.032848440535090	0.0080611126384196
16.060000000000	0.033715472621071	0.0081521816097020
16.090000000000	0.034601233691694	0.0082255145197668
16.120000000000	0.035506041089081	0.0082812756516943
16.150000000000	0.036430382196207	0.0083195523872034
16.180000000000	0.037374899689248	0.0083403210762402
16.210000000000	0.038340370086002	0.0083434166849018
16.240000000000	0.039327676620630	0.0083285076321775
16.270000000000	0.040337777785107	0.0082950769449559
16.300000000000	0.041371673111566	0.0082424105104930
16.330000000000	0.042430367911711	0.0081695928066149
16.360000000000	0.043514838729739	0.0080755100664591
16.390000000000	0.044626001200252	0.0079588604124262
16.420000000000	0.045764681835253	0.0078181700995029
16.450000000000	0.046931595004152	0.0076518146660426
16.480000000000	0.048127326033232	0.0074580435224330
16.510000000000	0.049352320956866	0.0072350063321728
16.540000000000	0.050606883026651	0.0069807794677014
16.570000000000	0.051891175653438	0.0066933908599617
16.600000000000	0.053205231048708	0.0063708417046146
16.630000000000	0.054548963472465	0.0060111237302366
16.660000000000	0.055922185708459	0.0056122310595037
16.690000000000	0.057324627193321	0.0051721660822797
16.720000000000	0.058755952137441	0.0046889391843410
16.750000000000	0.060215775998557	0.0041605626089871
16.780000000000	0.061703678803162	0.0035850391418787
16.810000000000	0.063219214047291	0.0029603466739221
16.840000000000	0.064761912231615	0.0022844199877778
16.870000000000	0.066331278474046	0.0015551313099319
16.900000000000	0.067926784069824	0.00077027125816221
16.930000000000	0.069547852304419	-7.2468213469065e-05
16.960000000000	0.071193839238040	-0.00097550741205229
16.990000000000	0.072864010542193	-0.0019413878330872
17.020000000000	0.074557515752184	-0.0029727755408912
17.050000000000	0.076273361483254	-0.0040724585266032
17.080000000000	0.078010385227475	-0.0052433380059877
17.110000000000	0.079767231297101	-0.0064884140619309
17.140000000000	0.081542330309371	-0.0078107664514774
17.170000000000	0.083333883328866	-0.0092135317530275
17.200000000000	0.085139851414782	-0.010699878298094
17.230000000000	0.086957950888167	-0.012272980491760
17.260000000000	0.088785654169029	-0.013935994161976
17.290000000000	0.090620195569987	-0.015692034484238
17.320000000000	0.092458581006764	-0.017544157808338
17.350000000000	0.094297600229901	-0.019495348380839
17.380000000000	0.096133839925878	-0.021548510532060
17.410000000000	0.097963695902036	-0.023706466408833
17.440000000000	0.099783382573161	-0.025971958818662
17.470000000000	0.10158893811264	-0.028347658244563
17.500000000000	0.10337622391313	-0.030836172631533
17.530000000000	0.10514091740449	-0.033440058170581
17.560000000000	0.10687849777624	-0.036161829046227
17.590000000000	0.10858422471447	-0.039003963991605
17.620000000000	0.11025311085193	-0.041968907526528
17.650000000000	0.11187988920238	-0.045059063942009
17.680000000000	0.11345897736535	-0.048276782432444
17.710000000000	0.11498444070675	-0.051624332246143
17.740000000000	0.11644995701067	-0.055103867297808
17.770000000000	0.11784878523366	-0.058717380326936
17.800000000000	0.11917374096051	-0.062466647352003
17.830000000000	0.12041718095627	-0.066353163816634
17.860000000000	0.12157099884231	-0.070378074406331
17.890000000000	0.12262663341464	-0.074542098991258
17.920000000000	0.12357509050181	-0.078845457487475
17.950000000000	0.12440697856663	-0.083287796599818
17.980000000000	0.12511255753533	-0.087868121399886
18.010000000000	0.12568179963889	-0.092584734499798
18.040000000000	0.12610446041933	-0.097435185216882
18.070000000000	0.12637015753385	-0.10241623060880
18.100000000000	0.12646845461671	-0.10752380962616
18.130000000000	0.12638894725915	-0.11275303092245
18.160000000000	0.12612134815578	-0.11809817412646
18.190000000000	0.12565556864356	-0.12355270367075
18.220000000000	0.12498179421306	-0.12910929362985
18.250000000000	0.12409055207912	-0.13475986149754
18.280000000000	0.12297276952091	-0.14049560846113
18.310000000000	0.12161982239796	-0.14630706353625
18.340000000000	0.12002357396768	-0.15218412892343
18.370000000000	0.11817640482124	-0.15811612413514
18.400000000000	0.11607123536713	-0.16409182680642
18.430000000000	0.11370154278278	-0.17009950861616
18.460000000000	0.11106137468719	-0.17612696537151
18.490000000000	0.10814536193802	-0.18216154099894
18.520000000000	0.10494873291404	-0.18819014589110
18.550000000000	0.10146733141050	-0.19419927072642
18.580000000000	0.097697639868157	-0.20017499745828
18.610000000000	0.093636809106063	-0.20610300962001
18.640000000000	0.089282695073312	-0.21196860437535
18.670000000000	0.084633902424768	-0.21775670884111
18.700000000000	0.079689834011553	-0.22345190310898
18.730000000000	0.074450744712147	-0.22903845210507
18.760000000000	0.068917797463139	-0.23450034796625
18.790000000000	0.063093118922086	-0.23982136401608
18.820000000000	0.056979851940486	-0.24498512073131
18.850000000000	0.050582201961608	-0.24997516335241
18.880000000000	0.043905474591066	-0.25477505006155
18.910000000000	0.036956101908248	-0.25936844898062
18.940000000000	0.029741655570817	-0.26373924167795
18.970000000000	0.022270845377632	-0.26787163045571
19.000000000000	0.014553502652950	-0.27175024644759
19.030000000000	0.0066005485463329	-0.27536025550573
19.060000000000	-0.0015760519442256	-0.27868745899556
19.090000000000	-0.0099633487745548	-0.28171838693614
19.120000000000	-0.018547476500807	-0.28444038139333
19.150000000000	-0.027313732409209	-0.28684166861691
19.180000000000	-0.036246660561833	-0.28891141906385
19.210000000000	-0.045330139168831	-0.29063979511780
19.240000000000	-0.054547468854319	-0.29201798694792
19.270000000000	-0.063881459700696	-0.29303823750114
19.300000000000	-0.073314515403278	-0.29369385804841
19.330000000000	-0.082828713402145	-0.29397923597992
19.360000000000	-0.092405880433331	-0.29388983664635
19.390000000000	-0.10202766350534	-0.29342220097277
19.420000000000	-0.11167559681013	-0.29257394033867
19.450000000000	-0.12133116547524	-0.29134372984876
19.480000000000	-0.13097586732055	-0.28973130065113
19.510000000000	-0.14059127387623	-0.28773743143920
19.540000000000	-0.15015909183795	-0.28536393875214
19.570000000000	-0.15966122588866	-0.28261366521830
19.600000000000	-0.16907984342399	-0.27949046451549
19.630000000000	-0.17839744121496	-0.27599918159246
19.660000000000	-0.18759691347401	-0.27214562663714
19.690000000000	-0.19666162021105	-0.26793654140463
19.720000000000	-0.20557545423193	-0.26337955683152
19.750000000000	-0.21432290469767	-0.25848314134614
19.780000000000	-0.22288911487869	-0.25325653990404
19.810000000000	-0.23125993164209	-0.24770970448915
19.840000000000	-0.23942194432797	-0.24185321756665
19.870000000000	-0.24736251101045	-0.23569821069116
19.900000000000	-0.25506977069179	-0.22925628109970
19.930000000000	-0.26253264071598	-0.22253940959189
19.960000000000	-0.26974079956714	-0.21555988326818
19.990000000000	-0.27668465618060	-0.20833022672173
20.020000000000	-0.28335530787157	-0.20086314503800
20.050000000000	-0.28974448990446	-0.19317148144531
20.080000000000	-0.29584452051154	-0.18526819169626
20.110000000000	-0.30164824575429	-0.17716633628114
20.140000000000	-0.30714898894659	-0.16887909043560
20.170000000000	-0.31234050938483	-0.16041977067537
20.200000000000	-0.31721697483255	-0.15180187535210
20.230000000000	-0.32177295158589	-0.14303913556119
20.260000000000	-0.32600341502288	-0.13414557173029
20.290000000000	-0.32990378235881	-0.12513555045318
20.320000000000	-0.33346996795447	-0.11602383567417
20.350000000000	-0.33669846003614	-0.10682562821946
20.380000000000	-0.33958641617519	-0.097556587941217
20.410000000000	-0.34213177343964	-0.088232833388173
20.440000000000	-0.34433336786458	-0.078870914920888
20.470000000000	-0.34619105688235	-0.069487758502482
20.500000000000	-0.34770583767966	-0.060100578947223
20.530000000000	-0.34887995416498	-0.050726763112778
20.560000000000	-0.34971698536534	-0.041383725277740
20.590000000000	-0.35022190863475	-0.032088738648204
20.620000000000	-0.35040113202616	-0.022858748480684
20.650000000000	-0.35026249150673	-0.013710173596184
20.680000000000	-0.34981521031452	-0.0046587040079757
20.710000000000	-0.34906981957102	0.0042808970702221
20.740000000000	-0.34803804117774	0.013094978468116
20.770000000000	-0.34673263592361	0.021771165542891
20.800000000000	-0.34516722150332	0.030298496688757
20.830000000000	-0.34335606669152	0.038667525854005
20.860000000000	-0.34131386914236	0.046870386577176
20.890000000000	-0.33905552511791	0.054900814829661
20.920000000000	-0.33659589984478	0.062754129871794
20.950000000000	-0.33394960713555	0.070427174283542
20.980000000000	-0.33113080639651	0.077918216207518
21.010000000000	-0.32815302421197	0.085226818535771
21.040000000000	-0.32502900640492	0.092353681189294
