#Parameters = {CPWG_cut=1.25; GND_len=30; GND_wid=5; Strip_wid=0.85; arr1_posx=10; clrGND=5; couplline_len1=0; couplline_len2=2; couplline_len3=1; couplline_pos=1.5; dip_len=3; dip_pos=3; dip_wid=0.4; dipext_len=2; feed_pos=0.3; gap=0.2; notch_len=2; patch_wid=2.6; sub_h=0.5; via_num=10}
#"Frequency / GHz"	"R1_3_1 [1] [Re]"	"R1_3_1 [1] [Im]"
#-----------------------------------------------------
10.000000000000	-0.0069962553005415	0.0051340186058351
10.030000000000	-0.0068470439205659	0.0052286622017764
10.060000000000	-0.0067158124071418	0.0053141107209278
10.090000000000	-0.0066034250849354	0.0053942891897820
10.120000000000	-0.0065101073049270	0.0054731855899817
10.150000000000	-0.0064354471874502	0.0055547536317063
10.180000000000	-0.0063784117508424	0.0056428175471765
10.210000000000	-0.0063373768619821	0.0057409809920964
10.240000000000	-0.0063101701473714	0.0058525420211147
10.270000000000	-0.0062941257292480	0.0059804159400144
10.300000000000	-0.0062861494061069	0.0061270676365682
10.330000000000	-0.0062827926860201	0.0062944547587661
10.360000000000	-0.0062803339083900	0.0064839828490301
10.390000000000	-0.0062748645585086	0.0066964732622477
10.420000000000	-0.0062623787918567	0.0069321444003901
10.450000000000	-0.0062388641427300	0.0071906064939169
10.480000000000	-0.0062003913948488	0.0074708698568240
10.510000000000	-0.0061432016393933	0.0077713662448241
10.540000000000	-0.0060637886366747	0.0080899826611840
10.570000000000	-0.0059589747288960	0.0084241066883370
10.600000000000	-0.0058259787196256	0.0087706821811643
10.630000000000	-0.0056624743365441	0.0091262739447766
10.660000000000	-0.0054666381228096	0.0094871398400915
10.690000000000	-0.0052371858536222	0.0098493086179647
10.720000000000	-0.0049733968423574	0.010208661679762
10.750000000000	-0.0046751257788604	0.010561016900804
10.780000000000	-0.0043428020248882	0.010902212633869
10.810000000000	-0.0039774165718793	0.011228190032811
10.840000000000	-0.0035804971381246	0.011535071900242
10.870000000000	-0.0031540721400522	0.011819236366191
10.900000000000	-0.0027006245102169	0.012077383844001
10.930000000000	-0.0022230365476792	0.012306595881767
10.960000000000	-0.0017245271703686	0.012504384728228
10.990000000000	-0.0012085830900184	0.012668732656431
11.020000000000	-0.00067888554543118	0.012798120331267
11.050000000000	-0.00013923430700472	0.012891543762763
11.080000000000	0.00040652929655166	0.012948519649698
11.110000000000	0.00095459858002828	0.012969079182085
11.140000000000	0.0015012752234639	0.012953750630155
11.170000000000	0.0020430388837139	0.012903531296260
11.200000000000	0.0025766111797374	0.012819849638990
11.230000000000	0.0030990126821602	0.012704518590900
11.260000000000	0.0036076117133525	0.012559681278007
11.290000000000	0.0041001639647472	0.012387750506857
11.320000000000	0.0045748421586830	0.012191343510220
11.350000000000	0.0050302552176129	0.011973213532924
11.380000000000	0.0054654566486507	0.011736179893407
11.410000000000	0.0058799421006243	0.011483058173286
11.440000000000	0.0062736362984766	0.011216592166793
11.470000000000	0.0066468698005344	0.010939389164916
11.500000000000	0.0070003462525667	0.010653860057376
11.530000000000	0.0073351010237382	0.010362165611267
11.560000000000	0.0076524522990063	0.010066170131583
11.590000000000	0.0079539458661917	0.0097674035294188
11.620000000000	0.0082412949705099	0.0094670326227517
11.650000000000	0.0085163167120146	0.0091658422768577
11.680000000000	0.0087808665302111	0.0088642267616683
11.710000000000	0.0090367723537734	0.0085621914668775
11.740000000000	0.0092857699914153	0.0082593648776223
11.770000000000	0.0095294413028117	0.0079550204793989
11.800000000000	0.0097691566171792	0.0076481080356421
11.830000000000	0.010006022763473	0.0073372934700157
11.860000000000	0.010240837942757	0.0070210063924789
11.890000000000	0.010474054513184	0.0066974941377235
11.920000000000	0.010705750575021	0.0063648810402172
11.950000000000	0.010935611041380	0.0060212315548496
11.980000000000	0.011162918664302	0.0056646157483307
12.010000000000	0.011386555260502	0.0052931756357606
12.040000000000	0.011605013151367	0.0049051908199891
12.070000000000	0.011816416602720	0.0044991419087095
12.100000000000	0.012018552826509	0.0040737702350804
12.130000000000	0.012208911893743	0.0036281324907407
12.160000000000	0.012384734710238	0.0031616489933336
12.190000000000	0.012543068028302	0.0026741444514979
12.220000000000	0.012680825312162	0.0021658802554471
12.250000000000	0.012794852145857	0.0016375775070416
12.280000000000	0.012881994772327	0.0010904302055062
12.310000000000	0.012939170283286	0.00052610821919654
12.340000000000	0.012963436942681	-5.3250104641543e-05
12.370000000000	0.012952063122694	-0.00064505561615448
12.400000000000	0.012902593360103	-0.0012462960275894
12.430000000000	0.012812910101793	-0.0018535730542983
12.460000000000	0.012681289799650	-0.0024631483170817
12.490000000000	0.012506452134889	-0.0030709971040884
12.520000000000	0.012287601297385	-0.0036728689235723
12.550000000000	0.012024458413485	-0.0042643536352526
12.580000000000	0.011717284402352	-0.0048409518307887
12.610000000000	0.011366892742093	-0.0053981480453117
12.640000000000	0.010974651838351	-0.0059314853237693
12.670000000000	0.010542476905113	-0.0064366396391220
12.700000000000	0.010072811485551	-0.0069094926645490
12.730000000000	0.0095685989552245	-0.0073462014384889
12.760000000000	0.0090332445562239	-0.0077432635285839
12.790000000000	0.0084705687046679	-0.0080975763968174
12.820000000000	0.0078847524912600	-0.0084064897910979
12.850000000000	0.0072802764517381	-0.0086678501354890
12.880000000000	0.0066618538178171	-0.0088800360589660
12.910000000000	0.0060343595669627	-0.0090419843872748
12.940000000000	0.0054027566689268	-0.0091532061202369
12.970000000000	0.0047720209769355	-0.0092137921233455
13.000000000000	0.0041470662309185	-0.0092244084733787
13.030000000000	0.0035326706289508	-0.0091862816085166
13.060000000000	0.0029334063816803	-0.0091011736396409
13.090000000000	0.0023535735939391	-0.0089713483768406
13.120000000000	0.0017971397197452	-0.0087995288095262
13.150000000000	0.0012676857137402	-0.0085888469461919
13.180000000000	0.00076835985654385	-0.0083427870673846
13.210000000000	0.00030184006680665	-0.0080651235698492
13.240000000000	-0.00012969466751254	-0.0077598546787249
13.270000000000	-0.00052458329798683	-0.0074311333761714
13.300000000000	-0.00088169192338824	-0.0070831969376137
13.330000000000	-0.0012004131574953	-0.0067202964802760
13.360000000000	-0.0014806558199092	-0.0063466279127598
13.390000000000	-0.0017228253090050	-0.0059662656296864
13.420000000000	-0.0019277952030547	-0.0055831002230980
13.450000000000	-0.0020968708091999	-0.0052007813841003
13.480000000000	-0.0022317455368631	-0.0048226670464661
13.510000000000	-0.0023344511091257	-0.0044517796813627
13.540000000000	-0.0024073027399147	-0.0040907704922045
13.570000000000	-0.0024528404942804	-0.0037418920844061
13.600000000000	-0.0024737681119733	-0.0034069800003333
13.630000000000	-0.0024728906098177	-0.0030874433189874
13.660000000000	-0.0024530519855741	-0.0027842643270395
13.690000000000	-0.0024170743251459	-0.0024980070768151
13.720000000000	-0.0023676995668371	-0.0022288344617835
13.750000000000	-0.0023075351021675	-0.0019765332648774
13.780000000000	-0.0022390042943112	-0.0017405464731761
13.810000000000	-0.0021643028748430	-0.0015200120074832
13.840000000000	-0.0020853620399341	-0.0013138068899907
13.870000000000	-0.0020038189115421	-0.0011205957700800
13.900000000000	-0.0019209948609685	-0.00093888264935056
13.930000000000	-0.0018378820150977	-0.00076706459363435
13.960000000000	-0.0017551380835233	-0.00060348619299302
13.990000000000	-0.0016730894615634	-0.00044649353082727
14.020000000000	-0.0015917423837642	-0.00029448645001168
14.050000000000	-0.0015108017287236	-0.00014596795661594
14.080000000000	-0.0014296969126192	4.1032105130442e-07
14.110000000000	-0.0013476141590520	0.00014580760052251
14.140000000000	-0.0012635342998788	0.00029115920264654
14.170000000000	-0.0011762751482552	0.00043714832295842
14.200000000000	-0.0010845373934604	0.00058418488915830
14.230000000000	-0.00098695289900190	0.00073239191348991
14.260000000000	-0.00088213424229180	0.00088159957783963
14.290000000000	-0.00076872431656991	0.0010313471145736
14.320000000000	-0.00064544482395254	0.0011808923712892
14.350000000000	-0.00051114252209246	0.0013292287765058
14.380000000000	-0.00036483214510418	0.0014751092595258
14.410000000000	-0.00020573500068938	0.0016170765247005
14.440000000000	-3.3312347904856e-05	0.0017534989413850
14.470000000000	0.00015270721858231	0.0018826111887950
14.500000000000	0.00035230701433572	0.0020025586923630
14.530000000000	0.00056516862697281	0.0021114448070602
14.560000000000	0.00079066571934557	0.0022073796451439
14.590000000000	0.0010278654326114	0.0022885294120152
14.620000000000	0.0012755373781746	0.0023531651049010
14.650000000000	0.0015321700388437	0.0023997094449938
14.680000000000	0.0017959942354441	0.0024267809539887
14.710000000000	0.0020650131590155	0.0024332341497002
14.740000000000	0.0023370383239243	0.0024181949211130
14.770000000000	0.0026097306667402	0.0023810902489137
14.800000000000	0.0028806459022941	0.0023216715609179
14.830000000000	0.0031472831542828	0.0022400311501198
14.860000000000	0.0034071358050237	0.0021366112333840
14.890000000000	0.0036577434589461	0.0020122053878004
14.920000000000	0.0038967438881081	0.0018679522660253
14.950000000000	0.0041219238258880	0.0017053216580665
14.980000000000	0.0043312674969858	0.0015260931313664
15.010000000000	0.0045230018174150	0.0013323276402802
15.040000000000	0.0046956372662107	0.0011263326467626
15.070000000000	0.0048480035196098	0.00091062143314701
15.100000000000	0.0049792790465296	0.00068786741243227
15.130000000000	0.0050890139889221	0.00046085434893701
15.160000000000	0.0051771457893507	0.00023242349034611
15.190000000000	0.0052440071779512	5.4186792858336e-06
15.220000000000	0.0052903262886438	-0.00021736944269244
15.250000000000	0.0053172188367119	-0.00043325900431293
15.280000000000	0.0053261724532807	-0.00063973111460958
15.310000000000	0.0053190234333943	-0.00083448160692389
15.340000000000	0.0052979263099714	-0.0010154692583102
15.370000000000	0.0052653168127102	-0.0011809594957977
15.400000000000	0.0052238689060125	-0.0013295626911634
15.430000000000	0.0051764467204515	-0.0014602662542760
15.460000000000	0.0051260522958220	-0.0015724598593900
15.490000000000	0.0050757701382841	-0.0016659532763373
15.520000000000	0.0050287096579388	-0.0017409864265118
15.550000000000	0.0049879465951095	-0.0017982314387429
15.580000000000	0.0049564645629042	-0.0018387866394133
15.610000000000	0.0049370978300317	-0.0018641625711738
15.640000000000	0.0049324764415247	-0.0018762602920838
15.670000000000	0.0049449747266487	-0.0018773423587259
15.700000000000	0.0049766641739766	-0.0018699970397496
15.730000000000	0.0050292715649163	-0.0018570964375208
15.760000000000	0.0051041431508253	-0.0018417493124613
15.790000000000	0.0052022155375088	-0.0018272495050005
15.820000000000	0.0053239938069668	-0.0018170209318356
15.850000000000	0.0054695372625189	-0.0018145601949272
15.880000000000	0.0056384530329266	-0.0018233778821651
15.910000000000	0.0058298976169327	-0.0018469396573075
15.940000000000	0.0060425862949457	-0.0018886082333677
15.970000000000	0.0062748101825428	-0.0019515872983571
16.000000000000	0.0065244605541418	-0.0020388684158830
16.030000000000	0.0067890599275109	-0.0021531818566354
16.060000000000	0.0070657992734997	-0.0022969522318478
16.090000000000	0.0073515806029437	-0.0024722596982129
16.120000000000	0.0076430640862719	-0.0026808073877597
16.150000000000	0.0079367187827809	-0.0029238955882793
16.180000000000	0.0082288759972345	-0.0032024030628066
16.210000000000	0.0085157842424326	-0.0035167757532461
16.240000000000	0.0087936647682822	-0.0038670229665189
16.270000000000	0.0090587666208214	-0.0042527209945766
16.300000000000	0.0093074202183463	-0.0046730239753215
16.330000000000	0.0095360884755513	-0.0051266816628025
16.360000000000	0.0097414145693016	-0.0056120636447750
16.390000000000	0.0099202655198295	-0.0061271894264388
16.420000000000	0.010069770856934	-0.0066697636931758
16.450000000000	0.010187355750028	-0.0072372159744537
16.480000000000	0.010270768101205	-0.0078267438574165
16.510000000000	0.010318099229311	-0.0084353588433452
16.540000000000	0.010327797907495	-0.0090599339040963
16.570000000000	0.010298677654119	-0.0096972517792772
16.600000000000	0.010229917314226	-0.010344053058424
16.630000000000	0.010121055103341	-0.010997083115459
16.660000000000	0.0099719764142505	-0.011653137004529
16.690000000000	0.0097828958081221	-0.012309101485793
16.720000000000	0.0095543337214680	-0.012961993425473
16.750000000000	0.0092870885177436	-0.013608993904547
16.780000000000	0.0089822045951432	-0.014247477473002
16.810000000000	0.0086409373286890	-0.014875036099041
16.840000000000	0.0082647156739676	-0.015489497482705
16.870000000000	0.0078551032909674	-0.016088937528389
16.900000000000	0.0074137590590493	-0.016671686897901
16.930000000000	0.0069423978481265	-0.017236331692503
16.960000000000	0.0064427523869990	-0.017781708435908
16.990000000000	0.0059165370282738	-0.018306893648108
17.020000000000	0.0053654141515195	-0.018811188409597
17.050000000000	0.0047909638736942	-0.019294098414936
17.080000000000	0.0041946576502216	-0.019755310101625
17.110000000000	0.0035778362533807	-0.020194663513271
17.140000000000	0.0029416925091304	-0.020612122613672
17.170000000000	0.0022872590615174	-0.021007743809694
17.200000000000	0.0016154013178877	-0.021381643464994
17.230000000000	0.00092681561082039	-0.021733965193503
17.260000000000	0.00022203249654154	-0.022064847711205
17.290000000000	-0.00049857500291856	-0.022374393997582
17.320000000000	-0.0012347785130063	-0.022662642474993
17.350000000000	-0.0019864771727384	-0.022929540856362
17.380000000000	-0.0027536767388519	-0.023174923240307
17.410000000000	-0.0035364654890753	-0.023398490950030
17.440000000000	-0.0043349875478188	-0.023599797519877
17.470000000000	-0.0051494143050826	-0.023778238133531
17.500000000000	-0.0059799146312677	-0.023933043712791
17.530000000000	-0.0068266246064182	-0.024063279748028
17.560000000000	-0.0076896174819669	-0.024167849853199
17.590000000000	-0.0085688745766875	-0.024245503922174
17.620000000000	-0.0094642577766824	-0.024294850661304
17.650000000000	-0.010375484262901	-0.024314374178004
17.680000000000	-0.011302104029989	-0.024302454218484
17.710000000000	-0.012243480688831	-0.024257389571676
17.740000000000	-0.013198775963618	-0.024177424092279
17.770000000000	-0.014166938204668	-0.024060774745075
17.800000000000	-0.015146695142632	-0.023905661036205
17.830000000000	-0.016136551010407	-0.023710335175588
17.860000000000	-0.017134788058268	-0.023473112308465
17.890000000000	-0.018139472387842	-0.023192400163079
17.920000000000	-0.019148463933744	-0.022866727485430
17.950000000000	-0.020159430330221	-0.022494770670124
17.980000000000	-0.021169864316034	-0.022075378047601
18.010000000000	-0.022177104255921	-0.021607591351092
18.040000000000	-0.023178357292910	-0.021090663960020
18.070000000000	-0.024170724594005	-0.020524075598424
18.100000000000	-0.025151228113274	-0.019907543255275
18.130000000000	-0.026116838272048	-0.019241028186329
18.160000000000	-0.027064501946196	-0.018524738952052
18.190000000000	-0.027991170155388	-0.017759130541038
18.220000000000	-0.028893824868700	-0.016944899720907
18.250000000000	-0.029769504374325	-0.016082976846827
18.280000000000	-0.030615326707583	-0.015174514439407
18.310000000000	-0.031428510689814	-0.014220872916932
18.340000000000	-0.032206394199618	-0.013223603930003
18.370000000000	-0.032946449375507	-0.012184431798142
18.400000000000	-0.033646294533656	-0.011105233586641
18.430000000000	-0.034303702673903	-0.0099880183869536
18.460000000000	-0.034916606539319	-0.0088349063746632
18.490000000000	-0.035483100287455	-0.0076481082152831
18.520000000000	-0.036001437922383	-0.0064299053698447
18.550000000000	-0.036470028723752	-0.0051826318199575
18.580000000000	-0.036887429990272	-0.0039086576863701
18.610000000000	-0.037252337488110	-0.0026103751571981
18.640000000000	-0.037563574058099	-0.0012901870731414
18.670000000000	-0.037820076887588	4.9501561115060e-05
18.700000000000	-0.038020883992075	0.0014062889558104
18.730000000000	-0.038165120477271	0.0027777787130004
18.760000000000	-0.038251985163311	0.0041615788036740
18.790000000000	-0.038280738148928	0.0055552974430337
18.820000000000	-0.038250689874610	0.0069565360564529
18.850000000000	-0.038161192210237	0.0083628796197839
18.880000000000	-0.038011632045029	0.0097718847432168
18.910000000000	-0.037801427796893	0.011181065945714
18.940000000000	-0.037530029185527	0.012587880635151
18.970000000000	-0.037196920530526	0.013989713365988
19.000000000000	-0.036801627744013	0.015383859990012
19.030000000000	-0.036343729088954	0.016767512345216
19.060000000000	-0.035822869671462	0.018137744142231
19.090000000000	-0.035238779530379	0.019491498706369
19.120000000000	-0.034591295082597	0.020825579215870
19.150000000000	-0.033880383580281	0.022136642043550
19.180000000000	-0.033106170138890	0.023421193760152
19.210000000000	-0.032268966804780	0.024675592293946
19.240000000000	-0.031369303050542	0.025896052663830
19.270000000000	-0.030407957016976	0.027078657613578
19.300000000000	-0.029385986764576	0.028219373374775
19.330000000000	-0.028304760756019	0.029314070677297
19.360000000000	-0.027165986765826	0.030358551011134
19.390000000000	-0.025971738404787	0.031348578024203
19.420000000000	-0.024724478455673	0.032279913820057
19.450000000000	-0.023427078243252	0.033148359799629
19.480000000000	-0.022082832305642	0.033949801574798
19.510000000000	-0.020695467694988	0.034680257371296
19.540000000000	-0.019269147312422	0.035335929236572
19.570000000000	-0.017808466774114	0.035913256277115
19.600000000000	-0.016318444410316	0.036408969071414
19.630000000000	-0.014804504115820	0.036820144341164
19.660000000000	-0.013272450896092	0.037144258916035
19.690000000000	-0.011728439086128	0.037379241997669
19.720000000000	-0.010178933356428	0.037523524717486
19.750000000000	-0.0086306627595780	0.037576085990968
19.780000000000	-0.0070905682092555	0.037536493698561
19.810000000000	-0.0055657439182205	0.037404940270082
19.840000000000	-0.0040633734503058	0.037182271814940
19.870000000000	-0.0025906611610767	0.036870010023696
19.900000000000	-0.0011547599101594	0.036470366166224
19.930000000000	0.00023730397700758	0.035986246626390
19.960000000000	0.0015787074410473	0.035421249540743
19.990000000000	0.0028629079953748	0.034779652247172
20.020000000000	0.0040837204459238	0.034066389396203
20.050000000000	0.0052353918388087	0.033287021730197
20.080000000000	0.0063126734482114	0.032447695691207
20.110000000000	0.0073108886350289	0.031555094173994
20.140000000000	0.0082259954459326	0.030616378893774
20.170000000000	0.0090546428819623	0.029639124985788
20.200000000000	0.0097942198448016	0.028631248593135
20.230000000000	0.010442895866231	0.027600928327713
20.260000000000	0.010999652840353	0.026556521604326
20.290000000000	0.011464307107170	0.025506476947664
20.320000000000	0.011837521377719	0.024459243454167
20.350000000000	0.012120806142938	0.023423178654108
20.380000000000	0.012316510367990	0.022406456062230
20.410000000000	0.012427801438209	0.021416973727222
20.440000000000	0.012458634489315	0.020462265090519
20.470000000000	0.012413711420045	0.019549413443460
20.500000000000	0.012298430047108	0.018684971228830
20.530000000000	0.012118824017436	0.017874885369095
20.560000000000	0.011881494238419	0.017124429720186
20.590000000000	0.011593532720630	0.016438145647890
20.620000000000	0.011262439847129	0.015819791605662
20.650000000000	0.010896036186726	0.015272302459869
20.680000000000	0.010502370053809	0.014797759163457
20.710000000000	0.010089622083139	0.014397369224474
20.740000000000	0.0096660081331720	0.014071458254195
20.770000000000	0.0092396818554563	0.013819472713813
