#Parameters = {CPWG_cut=1.25; GND_len=30; GND_wid=5; Strip_wid=0.85; arr1_posx=10; clrGND=5; couplline_len1=0; couplline_len2=2; couplline_len3=1; couplline_pos=1.5; dip_len=3; dip_pos=3; dip_wid=0.4; dipext_len=2; feed_pos=0.3; gap=0.2; notch_len=2; patch_wid=2.6; sub_h=0.5; via_num=10}
#"Frequency / GHz"	"R1_0_0 [1] [Re]"	"R1_0_0 [1] [Im]"
#-----------------------------------------------------
10.000000000000	0.016383620580101	0.0053034126093609
10.030000000000	0.016985084972906	0.0048328533738223
10.060000000000	0.017583458666919	0.0043154621549285
10.090000000000	0.018175224223786	0.0037496031881082
10.120000000000	0.018756541589647	0.0031338745588759
10.150000000000	0.019323243180591	0.0024671703742839
10.180000000000	0.019870843099042	0.0017487530187346
10.210000000000	0.020394564649212	0.00097833181638970
10.240000000000	0.020889389286689	0.00015614302853577
10.270000000000	0.021350128676699	-0.00071697497805839
10.300000000000	0.021771519737244	-0.0016395182216763
10.330000000000	0.022148340532231	-0.0026092722266057
10.360000000000	0.022475542807895	-0.0036232923020803
10.390000000000	0.022748395001947	-0.0046779144598831
10.420000000000	0.022962627871285	-0.0057688008320526
10.450000000000	0.023114573643556	-0.0068910213378489
10.480000000000	0.023201288939759	-0.0080391708683802
10.510000000000	0.023220651743249	-0.0092075185710275
10.540000000000	0.023171423462724	-0.010390183115116
10.570000000000	0.023053268657496	-0.011581325311149
10.600000000000	0.022866727210139	-0.012775347344611
10.630000000000	0.022613136535619	-0.013967086362456
10.660000000000	0.022294504646806	-0.015151989375768
10.690000000000	0.021913338350821	-0.016326256530910
10.720000000000	0.021472434295868	-0.017486940813225
10.750000000000	0.020974643776393	-0.018631994177961
10.780000000000	0.020422624890491	-0.019760252882289
10.810000000000	0.019818597603156	-0.020871358284060
10.840000000000	0.019164118315451	-0.021965613382863
10.870000000000	0.018459890539854	-0.023043779664098
10.900000000000	0.017705627167729	-0.024106823091008
10.930000000000	0.016899977591866	-0.025155622081159
10.960000000000	0.016040529697518	-0.026190653715001
10.990000000000	0.015123892616525	-0.027211676991592
11.020000000000	0.014145861375157	-0.028217433450557
11.050000000000	0.013101659436688	-0.029205385761222
11.080000000000	0.011986249961722	-0.030171513854865
11.110000000000	0.010794701718869	-0.031110185843155
11.140000000000	0.0095225913073149	-0.032014117410568
11.170000000000	0.0081664200069873	-0.032874428760856
11.200000000000	0.0067240214092918	-0.033680802784154
11.230000000000	0.0051949351930121	-0.034421742200856
11.260000000000	0.0035807231052538	-0.035084917384895
11.290000000000	0.0018852054038315	-0.035657590748515
11.320000000000	0.00011459963664986	-0.036127098357912
11.350000000000	-0.0017224514970521	-0.036481365192995
11.380000000000	-0.0036149705971961	-0.036709427464169
11.410000000000	-0.0055498551941016	-0.036801933883130
11.440000000000	-0.0075122006227030	-0.036751597894769
11.470000000000	-0.0094857235224582	-0.036553574656259
11.500000000000	-0.011453267205676	-0.036205739936462
11.530000000000	-0.013397364925287	-0.035708852940825
11.560000000000	-0.015300833129580	-0.035066591086825
11.590000000000	-0.017147364384472	-0.034285451626267
11.620000000000	-0.018922088951949	-0.033374522336990
11.650000000000	-0.020612075112051	-0.032345130856238
11.680000000000	-0.022206741171687	-0.031210389160489
11.710000000000	-0.023698156574511	-0.029984655790404
11.740000000000	-0.025081215368821	-0.028682943298699
11.770000000000	-0.026353672174730	-0.027320301757097
11.800000000000	-0.027516038320298	-0.025911210779427
11.830000000000	-0.028571343548656	-0.024469012288984
11.860000000000	-0.029524776178323	-0.023005414178515
11.890000000000	-0.030383221383508	-0.021530091192350
11.920000000000	-0.031154722947035	-0.020050404019753
11.950000000000	-0.031847898087793	-0.018571251036938
11.980000000000	-0.032471337525893	-0.017095059756219
12.010000000000	-0.033033023672747	-0.015621917268344
12.040000000000	-0.033539798681588	-0.014149831254865
12.070000000000	-0.033996911141594	-0.012675105952692
12.100000000000	-0.034407665628365	-0.011192811191031
12.130000000000	-0.034773193414117	-0.0096973176507673
12.160000000000	-0.035092355749604	-0.0081828680968340
12.190000000000	-0.035361783668974	-0.0066441526868930
12.220000000000	-0.035576050680619	-0.0050768566389789
12.250000000000	-0.035727967435361	-0.0034781505106985
12.280000000000	-0.035808980926532	-0.0018470969600136
12.310000000000	-0.035809655342123	-0.00018495288313621
12.340000000000	-0.035720207651971	0.0015046480609140
12.370000000000	-0.035531068578229	0.0032156407056694
12.400000000000	-0.035233438869717	0.0049396024583834
12.430000000000	-0.034819811780031	0.0066659502568649
12.460000000000	-0.034284435232873	0.0083822479838825
12.490000000000	-0.033623691149372	0.010074606342238
12.520000000000	-0.032836374535794	0.011728152801243
12.550000000000	-0.031923860850315	0.013327546236303
12.580000000000	-0.030890156511730	0.014857509422885
12.610000000000	-0.029741833794965	0.016303352642996
12.640000000000	-0.028487857403711	0.017651463249720
12.670000000000	-0.027139315379263	0.018889738958670
12.700000000000	-0.025709071411273	0.020007946664492
12.730000000000	-0.024211358845606	0.020997993427911
12.760000000000	-0.022661338603287	0.021854101618501
12.790000000000	-0.021074643785521	0.022572885689366
12.820000000000	-0.019466932982069	0.023153333367655
12.850000000000	-0.017853472342563	0.023596698862581
12.880000000000	-0.016248763500259	0.023906319759943
12.910000000000	-0.014666230696144	0.024087372389170
12.940000000000	-0.013117976214534	0.024146582486769
12.970000000000	-0.011614608801397	0.024091908885480
13.000000000000	-0.010165145381240	0.023932217753746
13.030000000000	-0.0087769823824547	0.023676963687297
13.060000000000	-0.0074559295501390	0.023335891866325
13.090000000000	-0.0062062964429950	0.022918772736886
13.120000000000	-0.0050310199897713	0.022435177483771
13.150000000000	-0.0039318205682999	0.021894299177561
13.180000000000	-0.0029093740497838	0.021304821140226
13.210000000000	-0.0019634880461908	0.020674831000944
13.240000000000	-0.0010932720824507	0.020011776291718
13.270000000000	-0.00029729342201233	0.019322455401158
13.300000000000	0.00042628738599957	0.018613036352186
13.330000000000	0.0010796046969841	0.017889095228331
13.360000000000	0.0016650007455141	0.017155666122139
13.390000000000	0.0021849622755184	0.016417295147527
13.420000000000	0.0026420779007150	0.015678092234219
13.450000000000	0.0030390119574086	0.014941775965116
13.480000000000	0.0033784898419700	0.014211708467616
13.510000000000	0.0036632896104739	0.013490919163962
13.540000000000	0.0038962349254152	0.012782117868714
13.570000000000	0.0040801851917088	0.012087699158294
13.600000000000	0.0042180198271664	0.011409741022568
13.630000000000	0.0043126149354969	0.010750001471846
13.660000000000	0.0043668120562820	0.010109916984623
13.690000000000	0.0043833800210560	0.0094906064516162
13.720000000000	0.0043649721242654	0.0088928836473356
13.750000000000	0.0043140817206055	0.0083172803199985
13.780000000000	0.0042329999129675	0.0077640808362740
13.810000000000	0.0041237791585046	0.0072333680652876
13.840000000000	0.0039882063901617	0.0067250789567887
13.870000000000	0.0038277886578871	0.0062390671753087
13.900000000000	0.0036437533988861	0.0057751692939882
13.930000000000	0.0034370643354072	0.0053332705037682
13.960000000000	0.0032084527741623	0.0049133656022331
13.990000000000	0.0029584628535766	0.0045156112061248
14.020000000000	0.0026875081619633	0.0041403656646425
14.050000000000	0.0023959362289058	0.0037882139892900
14.080000000000	0.0020840967524070	0.0034599761870266
14.110000000000	0.0017524091196731	0.0031566985946816
14.140000000000	0.0014014248347054	0.0028796290611274
14.170000000000	0.0010318808755987	0.0026301780044135
14.200000000000	0.00064474073334933	0.0024098683854422
14.230000000000	0.00024122087044569	0.0022202784038332
14.260000000000	-0.00017719850113895	0.0020629811727730
14.290000000000	-0.00060877818337135	0.0019394857314934
14.320000000000	-0.0010515389428333	0.0018511834991678
14.350000000000	-0.0015032922043939	0.0017993036844267
14.380000000000	-0.0019616791683595	0.0017848802897246
14.410000000000	-0.0024242144433145	0.0018087322620541
14.440000000000	-0.0028883300343795	0.0018714571309043
14.470000000000	-0.0033514156314573	0.0019734372408493
14.500000000000	-0.0038108515968676	0.0021148565316965
14.530000000000	-0.0042640318210064	0.0022957248396324
14.560000000000	-0.0047083746373507	0.0025159059704826
14.590000000000	-0.0051413211827054	0.0027751453931807
14.620000000000	-0.0055603218593411	0.0030730933549005
14.650000000000	-0.0059628128001450	0.0034093195382503
14.680000000000	-0.0063461853548244	0.0037833160459913
14.710000000000	-0.0067077525123746	0.0041944864632596
14.740000000000	-0.0070447167762601	0.0046421199409135
14.770000000000	-0.0073541442599127	0.0051253505776858
14.800000000000	-0.0076329496430685	0.0056431037529028
14.830000000000	-0.0078778961243211	0.0061940323710756
14.860000000000	-0.0080856136504635	0.0067764471237376
14.890000000000	-0.0082526375534554	0.0073882457626653
14.920000000000	-0.0083754683580546	0.0080268469400451
14.950000000000	-0.0084506520309091	0.0086891343561216
14.980000000000	-0.0084748784286151	0.0093714167409962
15.010000000000	-0.0084450942737262	0.010069408590185
15.040000000000	-0.0083586257446052	0.010778235606769
15.070000000000	-0.0082133047956737	0.011492467535154
15.100000000000	-0.0080075926989010	0.012206179582347
15.130000000000	-0.0077406940618936	0.012913042007267
15.160000000000	-0.0074126547529382	0.013606435820635
15.190000000000	-0.0070244377415795	0.014279590982459
15.220000000000	-0.0065779718107855	0.014925742110246
15.250000000000	-0.0060761693554069	0.015538295605464
15.280000000000	-0.0055229109736084	0.016111001336911
15.310000000000	-0.0049229961911348	0.016638121633372
15.340000000000	-0.0042820613328095	0.017114590354826
15.370000000000	-0.0036064671706961	0.017536155226237
15.400000000000	-0.0029031604388695	0.017899497399854
15.430000000000	-0.0021795145276005	0.018202323308162
15.460000000000	-0.0014431555889655	0.018443425208676
15.490000000000	-0.00070178085634774	0.018622708319395
15.520000000000	3.7023819881286e-05	0.018741184008332
15.550000000000	0.00076596038713891	0.018800930040027
15.580000000000	0.0014781826354837	0.018805020309064
15.610000000000	0.0021674423643780	0.018757427729345
15.640000000000	0.0028282132134096	0.018662904937100
15.670000000000	0.0034557889145050	0.018526848162972
15.700000000000	0.0040463540249678	0.018355150012045
15.730000000000	0.0045970265092086	0.018154046959113
15.760000000000	0.0051058727773950	0.017929967138322
15.790000000000	0.0055718968958703	0.017689383517290
15.820000000000	0.0059950066046952	0.017438676845380
15.850000000000	0.0063759594754493	0.017184011913138
15.880000000000	0.0067162929981128	0.016931229718867
15.910000000000	0.0070182425972943	0.016685757173072
15.940000000000	0.0072846515592253	0.016452535041860
15.970000000000	0.0075188766296569	0.016235963987990
16.000000000000	0.0077246926575726	0.016039867853925
16.030000000000	0.0079061991561318	0.015867472772203
16.060000000000	0.0080677310791977	0.015721400298741
16.090000000000	0.0082137755171721	0.015603672543991
16.120000000000	0.0083488954433217	0.015515727213113
16.150000000000	0.0084776611277910	0.015458440536733
16.180000000000	0.0086045894080857	0.015432156248547
16.210000000000	0.0087340906784249	0.015436719010601
16.240000000000	0.0088704232414792	0.015471510966139
16.270000000000	0.0090176545499191	0.015535490380226
16.300000000000	0.0091796288382176	0.015627231581170
16.330000000000	0.0093599406869591	0.015744965619416
16.360000000000	0.0095619141477939	0.015886621201386
16.390000000000	0.0097885871609626	0.016049865528695
16.420000000000	0.010042701093815	0.016232144681993
16.450000000000	0.010326695296322	0.016430723144109
16.480000000000	0.010642706591912	0.016642721976277
16.510000000000	0.010992573589571	0.016865155064414
16.540000000000	0.011377845613782	0.017094962762077
16.570000000000	0.011799795907814	0.017329042193951
16.600000000000	0.012259438584790	0.017564273467072
16.630000000000	0.012757548596973	0.017797541079958
16.660000000000	0.013294683787392	0.018025749929997
16.690000000000	0.013871207901456	0.018245835497498
16.720000000000	0.014487313291088	0.018454768024609
16.750000000000	0.015143041959141	0.018649550796364
16.780000000000	0.015838303582064	0.018827212951459
16.810000000000	0.016572889222896	0.018984797580565
16.840000000000	0.017346479607163	0.019119346186292
16.870000000000	0.018158647076779	0.019227880857842
16.900000000000	0.019008850650890	0.019307385733154
16.930000000000	0.019896423991183	0.019354789463870
16.960000000000	0.020820556471850	0.019366950450672
16.990000000000	0.021780267967382	0.019340646571312
17.020000000000	0.022774378370108	0.019272570980444
17.050000000000	0.023801473209853	0.019159335324842
17.080000000000	0.024859867048911	0.018997481401562
17.110000000000	0.025947566548874	0.018783501906615
17.140000000000	0.027062235239205	0.018513870498147
17.170000000000	0.028201162053436	0.018185080953398
17.200000000000	0.029361235636450	0.017793694755972
17.230000000000	0.030538926269447	0.017336396031277
17.260000000000	0.031730277017460	0.016810052373475
17.290000000000	0.032930905390761	0.016211779793273
17.320000000000	0.034136016442583	0.015539009775038
17.350000000000	0.035340427819144	0.014789556271930
17.380000000000	0.036538606852386	0.013961680392534
17.410000000000	0.037724719358899	0.013054150541145
17.440000000000	0.038892689396242	0.012066295862091
17.470000000000	0.040036268844148	0.010998050999160
17.500000000000	0.041149115334247	0.0098499904051735
17.530000000000	0.042224876756158	0.0086233507138166
17.560000000000	0.043257280326322	0.0073200400053865
17.590000000000	0.044240224022100	0.0059426331498618
17.620000000000	0.045167868059632	0.0044943527849756
17.650000000000	0.046034724030366	0.0029790358749472
17.680000000000	0.046835739308096	0.0014010861892679
17.710000000000	0.047566374395549	-0.00023458656710710
17.740000000000	0.048222670996640	-0.0019226398577419
17.770000000000	0.048801308777088	-0.0036573821717787
17.800000000000	0.049299649011304	-0.0054328658105900
17.830000000000	0.049715763606142	-0.0072429864712418
17.860000000000	0.050048448339521	-0.0090815872275163
17.890000000000	0.050297219549824	-0.010942564296023
17.920000000000	0.050462293953845	-0.012819971825870
17.950000000000	0.050544551747321	-0.014708122876142
17.980000000000	0.050545483640433	-0.016601683755569
18.010000000000	0.050467122985602	-0.018495759001020
18.040000000000	0.050311964648269	-0.020385964470278
18.070000000000	0.050082872732809	-0.022268486320726
18.100000000000	0.049782979684078	-0.024140124034891
18.130000000000	0.049415579619011	-0.025998316127116
18.160000000000	0.048984018982597	-0.027841147707936
18.190000000000	0.048491587751896	-0.029667339674439
18.220000000000	0.047941414418508	-0.031476219911365
18.250000000000	0.047336367857898	-0.033267677501449
18.280000000000	0.046678968943796	-0.035042101524946
18.310000000000	0.045971314395538	-0.036800306547944
18.340000000000	0.045215014871085	-0.038543447329363
18.370000000000	0.044411148760763	-0.040272925593955
18.400000000000	0.043560232524756	-0.041990291905204
18.430000000000	0.042662207783344	-0.043697145717467
18.460000000000	0.041716444747534	-0.045395036588738
18.490000000000	0.040721761003812	-0.047085369301207
18.520000000000	0.039676454172325	-0.048769315281876
18.550000000000	0.038578346570558	-0.050447732263933
18.580000000000	0.037424839754871	-0.052121093611721
18.610000000000	0.036212976692198	-0.053789428183410
18.640000000000	0.034939509335992	-0.055452271063012
18.670000000000	0.033600969536314	-0.057108624994550
18.700000000000	0.032193741486127	-0.058756931929414
18.730000000000	0.030714134268183	-0.060395053781508
18.760000000000	0.029158453486010	-0.062020261293238
18.790000000000	0.027523071401121	-0.063629229859065
18.820000000000	0.025804495417097	-0.065218041231262
18.850000000000	0.023999435112199	-0.066782190233106
18.880000000000	0.022104868292060	-0.068316595905950
18.910000000000	0.020118106686956	-0.069815616887504
18.940000000000	0.018036861937547	-0.071273071222193
18.970000000000	0.015859312393479	-0.072682261199382
19.000000000000	0.013584170997409	-0.074036004160283
19.030000000000	0.011210754161081	-0.075326670471183
19.060000000000	0.0087390510889215	-0.076546229996801
19.090000000000	0.0061697925056396	-0.077686308400156
19.120000000000	0.0035045172406385	-0.078738254432342
19.150000000000	0.00074563465945648	-0.079693219057881
19.180000000000	-0.0021035194447999	-0.080542246802677
19.210000000000	-0.0050386361393424	-0.081276379138338
19.240000000000	-0.0080543985543920	-0.081886769065614
19.270000000000	-0.011144461656122	-0.082364805376062
19.300000000000	-0.014301448982339	-0.082702244404630
19.330000000000	-0.017516968294778	-0.082891346487115
19.360000000000	-0.020781647509489	-0.082925013853213
19.390000000000	-0.024085191554905	-0.082796926358019
19.420000000000	-0.027416460021220	-0.082501671312303
19.450000000000	-0.030763564657012	-0.082034863730572
19.480000000000	-0.034113984995494	-0.081393253576737
19.510000000000	-0.037454699707932	-0.080574817035207
19.540000000000	-0.040772330734836	-0.079578829440044
19.570000000000	-0.044053296875340	-0.078405918213230
19.600000000000	-0.047283973347801	-0.077058094941333
19.630000000000	-0.050450853879267	-0.075538766498498
19.660000000000	-0.053540712130452	-0.073852725841704
19.690000000000	-0.056540759690625	-0.072006123704710
19.720000000000	-0.059438798441818	-0.070006422851528
19.750000000000	-0.062223365739123	-0.067862336783801
19.780000000000	-0.064883871519512	-0.065583754810871
19.810000000000	-0.067410727067152	-0.063181655187927
19.840000000000	-0.069795465661816	-0.060668007627769
19.870000000000	-0.072030855658985	-0.058055665936842
19.900000000000	-0.074111006648916	-0.055358250874366
19.930000000000	-0.076031469188099	-0.052590022656926
19.960000000000	-0.077789328182673	-0.049765741909684
19.990000000000	-0.079383289345399	-0.046900517382066
20.020000000000	-0.080813757285912	-0.044009638477859
20.050000000000	-0.082082902791069	-0.041108390663474
20.080000000000	-0.083194715790667	-0.038211852162322
20.110000000000	-0.084155039480311	-0.035334671042808
20.140000000000	-0.084971580192636	-0.032490822860749
20.170000000000	-0.085653886975449	-0.029693350392582
20.200000000000	-0.086213294548396	-0.026954088632854
20.230000000000	-0.086662823450226	-0.024283380039916
20.260000000000	-0.087017031815488	-0.021689786886228
20.290000000000	-0.087291814362083	-0.019179809375624
20.320000000000	-0.087504145824982	-0.016757619791964
20.350000000000	-0.087671768196089	-0.014424824204024
20.380000000000	-0.087812823648456	-0.012180264041856
20.410000000000	-0.087945437824249	-0.010019870070929
20.440000000000	-0.088087261109967	-0.0079365808401341
20.470000000000	-0.088254978448382	-0.0059203365216244
20.500000000000	-0.088463800970134	-0.0039581571882116
20.530000000000	-0.088726955093007	-0.0020343120249090
20.560000000000	-0.089055186565910	-0.00013058282662004
20.590000000000	-0.089456298080332	0.0017733784834281
20.620000000000	-0.089934739416965	0.0036996025111427
20.650000000000	-0.090491268561256	0.0056712734793272
20.680000000000	-0.091122700775904	0.0077121309787493
20.710000000000	-0.091821760278410	0.0098458183022744
20.740000000000	-0.092577046005452	0.012095196469483
20.770000000000	-0.093373119070683	0.014481645548435
20.800000000000	-0.094190715099451	0.017024376532270
20.830000000000	-0.095007079850538	0.019739777711341
20.860000000000	-0.095796421634263	0.022640819124738
20.890000000000	-0.096530469245544	0.025736537260029
20.920000000000	-0.097179119687221	0.029031619734337
