#Parameters = {CPWG_cut=1.25; GND_len=30; GND_wid=5; Strip_wid=0.85; arr1_posx=10; clrGND=5; couplline_len1=0; couplline_len2=2; couplline_len3=1; couplline_pos=1.5; dip_len=3; dip_pos=3; dip_wid=0.4; dipext_len=2; feed_pos=0.3; gap=0.2; notch_len=2; patch_wid=2.6; sub_h=0.5; via_num=10}
#"Frequency / GHz"	"R1_3_1 [1] [Real/Imaginary Part] [Re]"	"R1_3_1 [1] [Real/Imaginary Part] [Im]"
#-------------------------------------------------------------------------------------------------
10.000000000000	-0.039324606340339	0.0070601516870278
10.030000000000	-0.039753582603389	0.0078512160471828
10.060000000000	-0.040164540421389	0.0086555502214111
10.090000000000	-0.040561235514292	0.0094685349295185
10.120000000000	-0.040948939971644	0.010287012024776
10.150000000000	-0.041333982182372	0.011109690172929
10.180000000000	-0.041723187734520	0.011937408709989
10.210000000000	-0.042123264251819	0.012773236939738
10.240000000000	-0.042540177980274	0.013622398863251
10.270000000000	-0.042978571097577	0.014492026971924
10.300000000000	-0.043441266066907	0.015390762238589
10.330000000000	-0.043928897059771	0.016328229765753
10.360000000000	-0.044439698973922	0.017314429734526
10.390000000000	-0.044969472563467	0.018359090533874
10.420000000000	-0.045511730567246	0.019471034644677
10.450000000000	-0.046058015488877	0.020657607674659
10.480000000000	-0.046598365924799	0.021924216844724
10.510000000000	-0.047121896109768	0.023274017464268
10.540000000000	-0.047617443605895	0.024707775029964
10.570000000000	-0.048074233582393	0.026223917307848
10.600000000000	-0.048482505467654	0.027818776067619
10.630000000000	-0.048834049178352	0.029487003104766
10.660000000000	-0.049122603619473	0.031222130925504
10.690000000000	-0.049344079384230	0.033017236057286
10.720000000000	-0.049496579964644	0.034865653341499
10.750000000000	-0.049580210475322	0.036761683534348
10.780000000000	-0.049596678877146	0.038701234611158
10.810000000000	-0.049548710837214	0.040682339576781
10.840000000000	-0.049439314518617	0.042705500263586
10.870000000000	-0.049270944651625	0.044773817177803
10.900000000000	-0.049044625219120	0.046892879282759
10.930000000000	-0.048759096215150	0.049070403793507
10.960000000000	-0.048410051683009	0.051315633532960
10.990000000000	-0.047989533379114	0.053638516989417
11.020000000000	-0.047485537024021	0.056048712718098
11.050000000000	-0.046881876584751	0.058554473998962
11.080000000000	-0.046158337060862	0.061161480688066
11.110000000000	-0.045291128739244	0.063871692171764
11.140000000000	-0.044253636940106	0.066682297703601
11.170000000000	-0.043017442107788	0.069584837921652
11.200000000000	-0.041553566942886	0.072564564074262
11.230000000000	-0.039833891311709	0.075600089802679
11.260000000000	-0.037832662959039	0.078663374907303
11.290000000000	-0.035528023444068	0.081720062273830
11.320000000000	-0.032903464814545	0.084730169157470
11.350000000000	-0.029949133632729	0.087649113534882
11.380000000000	-0.026662905056797	0.090429036489143
11.410000000000	-0.023051160437996	0.093020363805007
11.440000000000	-0.019129216700853	0.095373535212142
11.470000000000	-0.014921373764222	0.097440818926118
11.500000000000	-0.010460566373146	0.099178122959908
11.530000000000	-0.0057876277569002	0.10054671348669
11.560000000000	-0.00095019326767679	0.10151475439745
11.590000000000	0.0039987086260134	0.10205859087625
11.620000000000	0.0090023140290004	0.10216371278706
11.650000000000	0.014001953015711	0.10182535014906
11.680000000000	0.018938965035172	0.10104867199494
11.710000000000	0.023756610651393	0.099848580340701
11.740000000000	0.028401890881523	0.098249111663148
11.770000000000	0.032827191113716	0.096282478005048
11.800000000000	0.036991676683186	0.093987797508277
11.830000000000	0.040862381003751	0.091409578855857
11.860000000000	0.044414943835433	0.088596035024505
11.890000000000	0.047633975812601	0.085597308389196
11.920000000000	0.050513044676439	0.082463691320839
11.950000000000	0.053054297650239	0.079243923990510
11.980000000000	0.055267752018873	0.075983644412317
12.010000000000	0.057170301289993	0.072724055333842
12.040000000000	0.058784496555036	0.069500859128429
12.070000000000	0.060137171268343	0.066343496216710
12.100000000000	0.061257982290241	0.063274705698294
12.130000000000	0.062177940603535	0.060310409792800
12.160000000000	0.062928001759862	0.057459907329684
12.190000000000	0.063537779208666	0.054726346762195
12.220000000000	0.064034433761136	0.052107436754516
12.250000000000	0.064441780244397	0.049596342875236
12.280000000000	0.064779638705535	0.047182712700977
12.310000000000	0.065063443174345	0.044853768859604
12.340000000000	0.065304106824657	0.042595410182305
12.370000000000	0.065508129167175	0.040393264952980
12.400000000000	0.065677919342684	0.038233646835939
12.430000000000	0.065812300208872	0.036104372886390
12.460000000000	0.065907151113248	0.033995413463246
12.490000000000	0.065956143231071	0.031899355178294
12.520000000000	0.065951520158025	0.029811669529261
12.550000000000	0.065884877952225	0.027730790910659
12.580000000000	0.065747902740288	0.025658017681234
12.610000000000	0.065533029936513	0.023597258399246
12.640000000000	0.065233996581523	0.021554651851307
12.670000000000	0.064846266741822	0.019538093870949
12.700000000000	0.064367318761778	0.017556706086601
12.730000000000	0.063796791879539	0.015620281710273
12.760000000000	0.063136497813267	0.013738741457971
12.790000000000	0.062390309974430	0.011921628964692
12.820000000000	0.061563948647756	0.010177669984553
12.850000000000	0.060664684577704	0.0085144136642926
12.880000000000	0.059700985817125	0.0069379676820230
12.910000000000	0.058682133433317	0.0054528324813313
12.940000000000	0.057617830838914	0.0040618335995543
12.970000000000	0.056517829314393	0.0027661455293506
13.000000000000	0.055391588976498	0.0015653959345864
13.030000000000	0.054247990327644	0.00045783555313643
13.060000000000	0.053095106922420	-0.00055944313797860
13.090000000000	0.051940044934471	-0.0014902564291680
13.120000000000	0.050788850805469	-0.0023390668145934
13.150000000000	0.049646483973761	-0.0031107238843784
13.180000000000	0.048516848128636	-0.0038102230940224
13.210000000000	0.047402871671406	-0.0044424940738840
13.240000000000	0.046306626176391	-0.0050122269683293
13.270000000000	0.045229470659782	-0.0055237419468870
13.300000000000	0.044172209348285	-0.0059809037362531
13.330000000000	0.043135251307812	-0.0063870799832596
13.360000000000	0.042118761619131	-0.0067451396394367
13.390000000000	0.041122795617664	-0.0070574854783147
13.420000000000	0.040147409877834	-0.0073261133909880
13.450000000000	0.039192745944466	-0.0075526902807729
13.480000000000	0.038259085128782	-0.0077386421771501
13.510000000000	0.037346874846694	-0.0078852445578062
13.540000000000	0.036456728859918	-0.0079937077197872
13.570000000000	0.035589405294502	-0.0080652512691628
13.600000000000	0.034745767398426	-0.0081011632830348
13.630000000000	0.033926732635454	-0.0081028413144769
13.660000000000	0.033133215903272	-0.0080718140409645
13.690000000000	0.032366072444725	-0.0080097438928522
13.720000000000	0.031626045448927	-0.0079184123505736
13.750000000000	0.030913722487431	-0.0077996906986895
13.780000000000	0.030229503883311	-0.0076554998261876
13.810000000000	0.029573584955027	-0.0074877631435601
13.840000000000	0.028945952897394	-0.0072983568484273
13.870000000000	0.028346397936817	-0.0070890616331699
13.900000000000	0.027774537393917	-0.0068615195268874
13.930000000000	0.027229850456501	-0.0066171989493511
13.960000000000	0.026711720846575	-0.0063573702839453
13.990000000000	0.026219484177683	-0.0060830934115037
14.020000000000	0.025752476648335	-0.0057952177487877
14.050000000000	0.025310081794394	-0.0054943944622708
14.080000000000	0.024891772306188	-0.0051810997312471
14.110000000000	0.024497144373040	-0.0048556672570250
14.140000000000	0.024125942609482	-0.0045183276897259
14.170000000000	0.023778074299918	-0.0041692522926541
14.200000000000	0.023453612425926	-0.0038085979968098
14.230000000000	0.023152787667520	-0.0034365510145247
14.260000000000	0.022875970253961	-0.0030533663709720
14.290000000000	0.022623643143274	-0.0026594010562993
14.320000000000	0.022396368500875	-0.0022551389727937
14.350000000000	0.022194749802485	-0.0018412064185210
14.380000000000	0.022019392088864	-0.0014183774753094
14.410000000000	0.021870862942682	-0.00098756931657959
14.440000000000	0.021749656642518	-0.00054982808125593
14.470000000000	0.021656163685785	-0.00010630653726339
14.500000000000	0.021590647479137	0.00034176475086834
14.530000000000	0.021553229496858	0.00079311065904897
14.560000000000	0.021543883635173	0.0012464468127360
14.590000000000	0.021562439878554	0.0017005145433852
14.620000000000	0.021608596779768	0.0021541131296033
14.650000000000	0.021681941676404	0.0026061271729387
14.680000000000	0.021781977058639	0.0030555473087017
14.710000000000	0.021908151098228	0.0035014829193965
14.740000000000	0.022059890073457	0.0039431660739137
14.770000000000	0.022236630297936	0.0043799465251215
14.800000000000	0.022437847192769	0.0048112782234921
14.830000000000	0.022663079331971	0.0052366984045985
14.860000000000	0.022911945630264	0.0056558008441190
14.890000000000	0.023184154310958	0.0060682053089012
14.920000000000	0.023479502860680	0.0064735255358235
14.950000000000	0.023797868811649	0.0068713382187054
14.980000000000	0.024139191849363	0.0072611554639758
15.010000000000	0.024503448380447	0.0076424029857937
15.040000000000	0.024890620267865	0.0080144059597847
15.070000000000	0.025300659908482	0.0083763839616611
15.100000000000	0.025733454156244	0.0087274558131499
15.130000000000	0.026188789757282	0.0090666544816546
15.160000000000	0.026666322945683	0.0093929514767596
15.190000000000	0.027165555647586	0.0097052895040061
15.220000000000	0.027685820365967	0.010002621521954
15.250000000000	0.028226275291285	0.010283953846654
15.280000000000	0.028785910536944	0.010548390595506
15.310000000000	0.029363565675741	0.010795176587862
15.340000000000	0.029957958002783	0.011023735838402
15.370000000000	0.030567720223307	0.011233702993799
15.400000000000	0.031191445611640	0.011424945462156
15.430000000000	0.031827738156847	0.011597574543587
15.460000000000	0.032475264840381	0.011751944552600
15.490000000000	0.033132807009567	0.011888639682814
15.520000000000	0.033799307832979	0.012008449149847
15.550000000000	0.034473913050786	0.012112331904247
15.580000000000	0.035156002650662	0.012201372879635
15.610000000000	0.035845211680523	0.012276733283917
15.640000000000	0.036541439112955	0.012339597814094
15.670000000000	0.037244844453784	0.012391121850838
15.700000000000	0.037955832583837	0.012432381654204
15.730000000000	0.038675028081793	0.012464330338898
15.760000000000	0.039403240942851	0.012487761973389
15.790000000000	0.040141426134851	0.012503285553480
15.820000000000	0.040890639782766	0.012511309890789
15.850000000000	0.041651994919305	0.012512039681916
15.880000000000	0.042426619674097	0.012505482241883
15.910000000000	0.043215620502284	0.012491463653050
15.940000000000	0.044020052597140	0.012469652452094
15.970000000000	0.044840899025465	0.012439588498684
16.000000000000	0.045679059415900	0.012400714374995
16.030000000000	0.046535348273046	0.012352406575661
16.060000000000	0.047410502242464	0.012294003868291
16.090000000000	0.048305194970256	0.012224830524139
16.120000000000	0.049220057638032	0.012144212610409
16.150000000000	0.050155702852151	0.012051486160444
16.180000000000	0.051112749355258	0.011945996745711
16.210000000000	0.052091845023469	0.011827090707657
16.240000000000	0.053093685812772	0.011694099010015
16.270000000000	0.054119028706286	0.011546315287055
16.300000000000	0.055168697257630	0.011382970141982
16.330000000000	0.056243578980477	0.011203204054073
16.360000000000	0.057344614547019	0.011006041359165
16.390000000000	0.058472779470518	0.010790367667529
16.420000000000	0.059629059601297	0.010554912784065
16.450000000000	0.060814422307700	0.010298240722599
16.480000000000	0.062029785599041	0.010018747796938
16.510000000000	0.063275987643962	0.0097146690759135
16.540000000000	0.064553759127571	0.0093840927644292
16.570000000000	0.065863700673696	0.0090249813771880
16.600000000000	0.067206267150324	0.0086351979636065
16.630000000000	0.068581760108683	0.0082125351724107
16.660000000000	0.069990328923962	0.0077547446527749
16.690000000000	0.071431980462903	0.0072595642016061
16.720000000000	0.072906596360341	0.0067247401937712
16.750000000000	0.074413956303502	0.0061480431664282
16.780000000000	0.075953765156161	0.0055272749461536
16.810000000000	0.077525681351944	0.0048602663693714
16.840000000000	0.079129343782533	0.0041448654016637
16.870000000000	0.080764394421438	0.0033789162509524
16.900000000000	0.082430494160270	0.0025602308307234
16.930000000000	0.084127329776257	0.0016865546015579
16.960000000000	0.085854610565913	0.00075552934758744
16.990000000000	0.087612053923988	-0.00023534421479925
17.020000000000	0.089399359962864	-0.0012887409749584
17.050000000000	0.091216176092291	-0.0024075401979516
17.080000000000	0.093062053248752	-0.0035948459424676
17.110000000000	0.094936396117229	-0.0048539970751671
17.140000000000	0.096838410173593	-0.0061885655250133
17.170000000000	0.098767048653937	-0.0076023422266684
17.200000000000	0.10072096260459	-0.0090993110568402
17.230000000000	0.10269845697734	-0.010683611905768
17.260000000000	0.10469745532169	-0.012359494783043
17.290000000000	0.10671547502020	-0.014131267473627
17.320000000000	0.10874961425932	-0.016003239687748
17.350000000000	0.11079655108512	-0.017979666853286
17.380000000000	0.11285255402483	-0.020064696664571
17.410000000000	0.11491350292921	-0.022262321228765
17.440000000000	0.11697491797146	-0.024576337161012
17.470000000000	0.11903199418177	-0.027010315309309
17.500000000000	0.12107963854721	-0.029567580992020
17.530000000000	0.12311250659139	-0.032251204766594
17.560000000000	0.12512503547763	-0.035064002885346
17.590000000000	0.12711147104304	-0.038008545800631
17.620000000000	0.12906588674120	-0.041087172419740
17.650000000000	0.13098219320413	-0.044302007332304
17.680000000000	0.13285413797131	-0.047654977977313
17.710000000000	0.13467529581095	-0.051147828704571
17.740000000000	0.13643905090553	-0.054782128917681
17.770000000000	0.13813857292412	-0.058559272945187
17.800000000000	0.13976678959814	-0.062480469937737
17.830000000000	0.14131635880768	-0.066546722881171
17.860000000000	0.14277964334088	-0.070758796686407
17.890000000000	0.14414869139625	-0.075117176198245
17.920000000000	0.14541522556359	-0.079622015787287
17.950000000000	0.14657064246934	-0.084273082887081
17.980000000000	0.14760602454942	-0.089069698356913
18.010000000000	0.14851216457422	-0.094010676848013
18.040000000000	0.14927960266147	-0.099094270403623
18.070000000000	0.14989867464503	-0.10431811832666
18.100000000000	0.15035956988880	-0.10967920591813
18.130000000000	0.15065239600768	-0.11517383405906
18.160000000000	0.15076724753214	-0.12079760082820
18.190000000000	0.15069427536303	-0.12654539548043
18.220000000000	0.15042375392517	-0.13241140422501
18.250000000000	0.14994614323684	-0.13838912641063
18.280000000000	0.14925214364337	-0.14447139901318
18.310000000000	0.14833274167454	-0.15065042678970
18.340000000000	0.14717924631963	-0.15691781515273
18.370000000000	0.14578331590434	-0.16326460275980
18.400000000000	0.14413697662728	-0.16968129100895
18.430000000000	0.14223263459881	-0.17615786807026
18.460000000000	0.14006308385728	-0.18268382573081
18.490000000000	0.13762151326284	-0.18924816813665
18.520000000000	0.13490151535008	-0.19583941241607
18.550000000000	0.13189710013960	-0.20244558209250
18.580000000000	0.12860271656708	-0.20905419506738
18.610000000000	0.12501328361081	-0.21565224870364
18.640000000000	0.12112423242525	-0.22222620510561
18.670000000000	0.11693155987926	-0.22876198002383
18.700000000000	0.11243189292035	-0.23524493888295
18.730000000000	0.10762256221743	-0.24165990322763
18.760000000000	0.10250168264856	-0.24799117041657
18.790000000000	0.097068237467292	-0.25422254870022
18.820000000000	0.091322162458706	-0.26033740894371
18.850000000000	0.085264426127008	-0.26631875326705
18.880000000000	0.078897101962794	-0.27214929984383
18.910000000000	0.072223429121459	-0.27781158210407
18.940000000000	0.065247858384705	-0.28328805970187
18.970000000000	0.057976081034343	-0.28856123790044
19.000000000000	0.050415039185209	-0.29361379154765
19.030000000000	0.042572917132136	-0.29842868960090
19.060000000000	0.034459114288583	-0.30298931622344
19.090000000000	0.026084201254324	-0.30727958480867
19.120000000000	0.017459861374522	-0.31128404186526
19.150000000000	0.0085988207813936	-0.31498795846600
19.180000000000	-0.00048522970246181	-0.31837740786464
19.210000000000	-0.0097777172992685	-0.32143932884400
19.240000000000	-0.019263271300052	-0.32416157529816
19.270000000000	-0.028925805430736	-0.32653295339632
19.300000000000	-0.038748596231557	-0.32854324835791
19.330000000000	-0.048714355896899	-0.33018324333553
19.360000000000	-0.058805298888497	-0.33144473311726
19.390000000000	-0.069003202513348	-0.33232053530944
19.420000000000	-0.079289462471830	-0.33280450135286
19.450000000000	-0.089645145058612	-0.33289152918931
19.480000000000	-0.10005103817862	-0.33257757868143
19.510000000000	-0.11048770357745	-0.33185969006211
19.540000000000	-0.12093553265735	-0.33073600482569
19.570000000000	-0.13137480795384	-0.32920578765292
19.600000000000	-0.14178577180762	-0.32726944726161
19.630000000000	-0.15214870302412	-0.32492855356477
19.660000000000	-0.16244400143251	-0.32218584825147
19.690000000000	-0.17265227931247	-0.31904524591654
19.720000000000	-0.18275445773472	-0.31551182316549
19.750000000000	-0.19273186504508	-0.31159179369653
19.780000000000	-0.20256633409004	-0.30729246817578
19.810000000000	-0.21224029440069	-0.30262219871426
19.840000000000	-0.22173685546828	-0.29759030885159
19.870000000000	-0.23103987748324	-0.29220701106035
19.900000000000	-0.24013402646909	-0.28648331481646
19.930000000000	-0.24900481159371	-0.28043092914145
19.960000000000	-0.25763860353253	-0.27406216413312
19.990000000000	-0.26602263401322	-0.26738983629590
20.020000000000	-0.27414497800093	-0.26042718242083
20.050000000000	-0.28199452128364	-0.25318778633115
20.080000000000	-0.28956091738564	-0.24568552201599
20.110000000000	-0.29683453867581	-0.23793451556444
20.140000000000	-0.30380642716140	-0.22994912695211
20.170000000000	-0.31046825070203	-0.22174395121368
20.200000000000	-0.31681227020681	-0.21333383696256
20.230000000000	-0.32283132277843	-0.20473391870876
20.260000000000	-0.32851882476692	-0.19595965809190
20.290000000000	-0.33386879734479	-0.18702688809479
20.320000000000	-0.33887591559628	-0.17795185362400
20.350000000000	-0.34353558033022	-0.16875124160314
20.380000000000	-0.34784400999753	-0.15944219395863
20.410000000000	-0.35179834834819	-0.15004229759202
20.440000000000	-0.35539678192339	-0.14056954659577
20.470000000000	-0.35863866026097	-0.13104227352012
20.500000000000	-0.36152461089247	-0.12147904834509
20.530000000000	-0.36405664089623	-0.11189854583889
20.560000000000	-0.36623821698196	-0.10231938406379
20.590000000000	-0.36807431681931	-0.092759938783575
20.620000000000	-0.36957144555338	-0.083238140301691
20.650000000000	-0.37073761310706	-0.073771260692339
20.680000000000	-0.37158226985493	-0.064375700378174
20.710000000000	-0.37211620044661	-0.055066783484413
20.740000000000	-0.37235137782226	-0.045858571320471
20.770000000000	-0.37230078165619	-0.036763702703470
20.800000000000	-0.37197818744780	-0.027793268676703
20.830000000000	-0.37139793412656	-0.018956727558581
20.860000000000	-0.37057467924328	-0.010261864282647
20.890000000000	-0.36952315151017	-0.0017147957784849
20.920000000000	-0.36825791058329	0.0066799781653323
20.950000000000	-0.36679312354909	0.014919481379167
20.980000000000	-0.36514236661279	0.023002130033950
21.010000000000	-0.36331845905722	0.030927570279458
21.040000000000	-0.36133333474072	0.038696492828719
21.070000000000	-0.35919795435200	0.046310433385452
