#Parameters = {CPWG_cut=1.25; GND_len=30; GND_wid=5; Strip_wid=0.85; arr1_posx=10; clrGND=5; couplline_len1=0; couplline_len2=2; couplline_len3=1; couplline_pos=1.5; dip_len=3; dip_pos=3; dip_wid=0.4; dipext_len=2; feed_pos=0.3; gap=0.2; notch_len=2; patch_wid=2.6; sub_h=0.5; via_num=10}
#"Frequency / GHz"	"R1_0_0 [1] [Real/Imaginary Part] [Re]"	"R1_0_0 [1] [Real/Imaginary Part] [Im]"
#-------------------------------------------------------------------------------------------------
10.000000000000	0.015984941790945	0.0058759231659223
10.030000000000	0.016437664024254	0.0055373404148347
10.060000000000	0.016889336729496	0.0051802828472872
10.090000000000	0.017341151999033	0.0048052761532311
10.120000000000	0.017794689203544	0.0044121658962708
10.150000000000	0.018251697245844	0.0039999945586121
10.180000000000	0.018713845083152	0.0035669443745485
10.210000000000	0.019182460068410	0.0031103533708919
10.240000000000	0.019658275239690	0.0026268063157407
10.270000000000	0.020141206622149	0.0021122962721354
10.300000000000	0.020630179864738	0.0015624466245447
10.330000000000	0.021123022207913	0.00097277825423475
10.360000000000	0.021616431087378	0.00033900240613568
10.390000000000	0.022106024950324	-0.00034268293493307
10.420000000000	0.022586475510274	-0.0010753164061906
10.450000000000	0.023051714167445	-0.0018609388902901
10.480000000000	0.023495199169748	-0.0027004214122996
10.510000000000	0.023910224767962	-0.0035933711622315
10.540000000000	0.024290249559945	-0.0045381259521333
10.570000000000	0.024629218772803	-0.0055318408681144
10.600000000000	0.024921854637014	-0.0065706637862617
10.630000000000	0.025163890370256	-0.0076499893032435
10.660000000000	0.025352226576144	-0.0087647740203582
10.690000000000	0.025484993896916	-0.0099098905245702
10.720000000000	0.025561512228244	-0.011080493282687
10.750000000000	0.025582144284470	-0.012272367362457
10.780000000000	0.025548049282970	-0.013482230652167
10.810000000000	0.025460850435625	-0.014707962162076
10.840000000000	0.025322237219574	-0.015948732998655
10.870000000000	0.025133529503118	-0.017205022497215
10.900000000000	0.024895235047730	-0.018478509431295
10.930000000000	0.024606634318415	-0.019771836721180
10.960000000000	0.024265426668036	-0.021088257083588
10.990000000000	0.023867469723871	-0.022431175992911
11.020000000000	0.023406639264539	-0.023803616543538
11.050000000000	0.022874830260074	-0.025207637726509
11.080000000000	0.022262111432219	-0.026643742748021
11.110000000000	0.021557036175482	-0.028110316917045
11.140000000000	0.020747102554991	-0.029603135047545
11.170000000000	0.019819345012746	-0.031114976149443
11.200000000000	0.018761031030018	-0.032635378482472
11.230000000000	0.017560427940178	-0.034150561046750
11.260000000000	0.016207598919158	-0.035643528667175
11.290000000000	0.014695183345557	-0.037094367511541
11.320000000000	0.013019115522200	-0.038480726780966
11.350000000000	0.011179237325869	-0.039778471103512
11.380000000000	0.0091797646672237	-0.040962477543647
11.410000000000	0.0070295744899777	-0.042007541780704
11.440000000000	0.0047422880459275	-0.042889350507872
11.470000000000	0.0023361368395065	-0.043585471950108
11.500000000000	-0.00016639067762877	-0.044076313943940
11.530000000000	-0.0027391115539711	-0.044345999450034
11.560000000000	-0.0053528981671612	-0.044383112689710
11.590000000000	-0.0079765830943410	-0.044181275140708
11.620000000000	-0.010577977810880	-0.043739519059758
11.650000000000	-0.013124957371936	-0.043062436537514
11.680000000000	-0.015586559236508	-0.042160093736854
11.710000000000	-0.017934043274859	-0.041047712241199
11.740000000000	-0.020141861821699	-0.039745131631666
11.770000000000	-0.022188493287234	-0.038276078814712
11.800000000000	-0.024057100035038	-0.036667279580745
11.830000000000	-0.025735980548906	-0.034947455825440
11.860000000000	-0.027218796787479	-0.033146257370351
11.890000000000	-0.028504569425773	-0.031293180089248
11.920000000000	-0.029597445720601	-0.029416521958681
11.950000000000	-0.030506256321871	-0.027542425753942
11.980000000000	-0.031243887831900	-0.025694051618490
12.010000000000	-0.031826506715152	-0.023890915009016
12.040000000000	-0.032272676817092	-0.022148416047290
12.070000000000	-0.032602416935565	-0.020477575673466
12.100000000000	-0.032836246427233	-0.018884982828358
12.130000000000	-0.032994265711662	-0.017372945844175
12.160000000000	-0.033095314900272	-0.015939830919208
12.190000000000	-0.033156247914537	-0.014580561554818
12.220000000000	-0.033191351778037	-0.013287245610989
12.250000000000	-0.033211931774875	-0.012049891537379
12.280000000000	-0.033226073427182	-0.010857172570545
12.310000000000	-0.033238582345621	-0.0096971973188578
12.340000000000	-0.033251093524388	-0.0085582471039210
12.370000000000	-0.033262333114111	-0.0074294444757323
12.400000000000	-0.033268508561548	-0.0063013231365918
12.430000000000	-0.033263797600827	-0.0051662766726660
12.460000000000	-0.033240903143599	-0.0040188715173115
12.490000000000	-0.033191639742423	-0.0028560179426882
12.520000000000	-0.033107517961225	-0.0016770010858205
12.550000000000	-0.032980295525211	-0.00048338158748265
12.580000000000	-0.032802468280375	0.00072121805413372
12.610000000000	-0.032567679424828	0.0019314201632186
12.640000000000	-0.032271031776344	0.0031404667947748
12.670000000000	-0.031909294577928	0.0043406362223116
12.700000000000	-0.031481003079122	0.0055236742187796
12.730000000000	-0.030986455454791	0.0066812148089810
12.760000000000	-0.030427617175682	0.0078051680359937
12.790000000000	-0.029807947437719	0.0088880562719644
12.820000000000	-0.029132165487104	0.0099232853848982
12.850000000000	-0.028405976537128	0.010905342288549
12.880000000000	-0.027635777446536	0.011829915689118
12.910000000000	-0.026828361495778	0.012693941857075
12.940000000000	-0.025990639613440	0.013495581693436
12.970000000000	-0.025129392492345	0.014234138984583
13.000000000000	-0.024251064460633	0.014909932376760
13.030000000000	-0.023361606029753	0.015524135157872
13.060000000000	-0.022466368024487	0.016078597396637
13.090000000000	-0.021570046388562	0.016575664419391
13.120000000000	-0.020676673397148	0.017018004131001
13.150000000000	-0.019789648288905	0.017408453489170
13.180000000000	-0.018911798390256	0.017749891738650
13.210000000000	-0.018045460712793	0.018045145040190
13.240000000000	-0.017192573765457	0.018296924126256
13.270000000000	-0.016354769878883	0.018507793803504
13.300000000000	-0.015533459579550	0.018680170691866
13.330000000000	-0.014729901323811	0.018816343690627
13.360000000000	-0.013945252026483	0.018918510391398
13.390000000000	-0.013180596102663	0.018988822060490
13.420000000000	-0.012436952994277	0.019029429879218
13.450000000000	-0.011715265200436	0.019042525800834
13.480000000000	-0.011016370526991	0.019030372555877
13.510000000000	-0.010340963507222	0.018995318881132
13.540000000000	-0.0096895516569805	0.018939797808863
13.570000000000	-0.0090624123939440	0.018866307673725
13.600000000000	-0.0084595560961754	0.018777377221723
13.630000000000	-0.0078806999636090	0.018675517703373
13.660000000000	-0.0073252561734905	0.018563165992727
13.690000000000	-0.0067923364060137	0.018442623520122
13.720000000000	-0.0062807732905230	0.018315996101663
13.750000000000	-0.0057891578181530	0.018185139593181
13.780000000000	-0.0053158904068327	0.018051615727652
13.810000000000	-0.0048592421940503	0.017916661580807
13.840000000000	-0.0044174223507515	0.017781174942285
13.870000000000	-0.0039886468047882	0.017645716557056
13.900000000000	-0.0035712037500284	0.017510528858095
13.930000000000	-0.0031635116807952	0.017375569547497
13.960000000000	-0.0027641663843462	0.017240557298413
13.990000000000	-0.0023719742759682	0.017105026024368
14.020000000000	-0.0019859705836898	0.016968383651030
14.050000000000	-0.0016054220847194	0.016829971155574
14.080000000000	-0.0012298152643183	0.016689117809163
14.110000000000	-0.00085883181732150	0.016545189039827
14.140000000000	-0.00049231426428417	0.016397624073613
14.170000000000	-0.00013022504903330	0.016245961440217
14.200000000000	0.00022739721343732	0.016089851462384
14.230000000000	0.00058048067072892	0.015929055898361
14.260000000000	0.00092895896985795	0.015763435888706
14.290000000000	0.0012728029590511	0.015592930196897
14.320000000000	0.0016120432519296	0.015417526367104
14.350000000000	0.0019467824125158	0.015237227811078
14.380000000000	0.0022771964294547	0.015052019960347
14.410000000000	0.0026035260296414	0.014861838483469
14.440000000000	0.0029260591638651	0.014666542195957
14.470000000000	0.0032451066204334	0.014465892726279
14.500000000000	0.0035609731433365	0.014259542302659
14.530000000000	0.0038739266248142	0.014047030258705
14.560000000000	0.0041841679039541	0.013827788090437
14.590000000000	0.0044918034490324	0.013601152199201
14.620000000000	0.0047968227654531	0.013366382881876
14.650000000000	0.0050990818015955	0.013122687725926
14.680000000000	0.0053982929796978	0.012869247360099
14.710000000000	0.0056940218207521	0.012605241511170
14.740000000000	0.0059856895228987	0.012329873513599
14.770000000000	0.0062725803473003	0.012042391785590
14.800000000000	0.0065538523083476	0.011742107280190
14.830000000000	0.0068285494859544	0.011428406491642
14.860000000000	0.0070956142894939	0.011100760187063
14.890000000000	0.0073538982005480	0.010758728582784
14.920000000000	0.0076021698830102	0.010401964139081
14.950000000000	0.0078391200370779	0.010030213461270
14.980000000000	0.0080633629395914	0.0096433199372266
15.010000000000	0.0082734352010812	0.0092412286950166
15.040000000000	0.0084677928213773	0.0088239952306198
15.070000000000	0.0086448080851447	0.0083917986526766
15.100000000000	0.0088027681581846	0.0079449599527815
15.130000000000	0.0089398773884507	0.0074839650825882
15.160000000000	0.0090542652611979	0.0070094919584577
15.190000000000	0.0091440017010720	0.0065224398803702
15.220000000000	0.0092071209684065	0.0060239593033784
15.250000000000	0.0092416547922021	0.0055154794903433
15.280000000000	0.0092456746624531	0.0049987313471786
15.310000000000	0.0092173424246387	0.0044757627254767
15.340000000000	0.0091549675411750	0.0039489436848150
15.370000000000	0.0090570686718398	0.0034209596329995
15.400000000000	0.0089224366378526	0.0028947908840237
15.430000000000	0.0087501954243894	0.0023736779514620
15.460000000000	0.0085398576834913	0.0018610727768824
15.490000000000	0.0082913712474615	0.0013605770166483
15.520000000000	0.0080051534581341	0.00087586940942847
15.550000000000	0.0076821106474680	0.00041062505428867
15.580000000000	0.0073236408396069	-3.1569915803114e-05
15.610000000000	0.0069316186379659	-0.00044730432904602
15.640000000000	0.0065083622546707	-0.00083342449226833
15.670000000000	0.0060565836671732	-0.0011871091357417
15.700000000000	0.0055793238781170	-0.0015059330045593
15.730000000000	0.0050798761413156	-0.0017879158761359
15.760000000000	0.0045617007375909	-0.0020315545551530
15.790000000000	0.0040283353890585	-0.0022358363305992
15.820000000000	0.0034833056540633	-0.0024002334129743
15.850000000000	0.0029300396296941	-0.0025246789346059
15.880000000000	0.0023717910057954	-0.0026095261215493
15.910000000000	0.0018115739833979	-0.0026554931637805
15.940000000000	0.0012521128285029	-0.0026635970612134
15.970000000000	0.00069580793050980	-0.0026350802584079
16.000000000000	0.00014471923527023	-0.0025713341680141
16.030000000000	-0.00039943310612088	-0.0024738237069951
16.060000000000	-0.00093525202093476	-0.0023440167339842
16.090000000000	-0.0014616327631587	-0.0021833218023318
16.120000000000	-0.0019777208812158	-0.0019930369693168
16.150000000000	-0.0024828621755994	-0.0017743115788340
16.180000000000	-0.0029765481975504	-0.0015281220232083
16.210000000000	-0.0034583608735183	-0.0012552615551718
16.240000000000	-0.0039279196329776	-0.00095634332902114
16.270000000000	-0.0043848339925262	-0.00063181506141879
16.300000000000	-0.0048286639453909	-0.00028198306904144
16.330000000000	-0.0052588897728250	9.2956998586662e-05
16.360000000000	-0.0056748920906458	0.00049288563336432
16.390000000000	-0.0060759421322045	0.00091772404758180
16.420000000000	-0.0064612015090389	0.0013674005350201
16.450000000000	-0.0068297300374107	0.0018418208816265
16.480000000000	-0.0071804997182843	0.0023408445326993
16.510000000000	-0.0075124126425728	0.0028642675620079
16.540000000000	-0.0078243204801780	0.0034118127818134
16.570000000000	-0.0081150433018360	0.0039831266392573
16.600000000000	-0.0083833857625613	0.0045777819196148
16.630000000000	-0.0086281491155366	0.0051952847692995
16.660000000000	-0.0088481380846331	0.0058350841997893
16.690000000000	-0.0090421622526613	0.0064965820632821
16.720000000000	-0.0092090322666271	0.0071791415124121
16.750000000000	-0.0093475517658971	0.0078820921648058
16.780000000000	-0.0094565064533563	0.0086047305688156
16.810000000000	-0.0095346521102260	0.0093463150762665
16.840000000000	-0.0095807035700228	0.010106054828005
16.870000000000	-0.0095933266975714	0.010883093197696
16.900000000000	-0.0095711352610820	0.011676486665061
16.930000000000	-0.0095126942502625	0.012485180648940
16.960000000000	-0.0094165307064474	0.013307984275810
16.990000000000	-0.0092811525291205	0.014143546352062
17.020000000000	-0.0091050750535447	0.014990334921653
17.050000000000	-0.0088868545086020	0.015846622711512
17.080000000000	-0.0086251268162588	0.016710480497225
17.110000000000	-0.0083186496356250	0.017579779977180
17.140000000000	-0.0079663451305175	0.018452207154483
17.170000000000	-0.0075673406850786	0.019325286533442
17.200000000000	-0.0071210047304446	0.020196415690280
17.230000000000	-0.0066269749856785	0.021062909029723
17.260000000000	-0.0060851767524409	0.021922048844075
17.290000000000	-0.0054958294152128	0.022771141200216
17.320000000000	-0.0048594399544404	0.023607573736032
17.350000000000	-0.0041767830355561	0.024428872184359
17.380000000000	-0.0034488680419676	0.025232752380252
17.410000000000	-0.0026768942207281	0.026017164652629
17.440000000000	-0.0018621958519389	0.026780327846283
17.470000000000	-0.0010061799873547	0.027520750742873
17.500000000000	-0.00011025978811626	0.028237239315998
17.530000000000	0.00082421320544898	0.028928889022102
17.560000000000	0.0017960144363386	0.029595062145597
17.590000000000	0.0028041059927579	0.030235351030367
17.620000000000	0.0038476875355690	0.030849528788525
17.650000000000	0.0049262359310387	0.031437489733460
17.680000000000	0.0060395316431209	0.031999182298040
17.710000000000	0.0071876706527926	0.032534537541055
17.740000000000	0.0083710614361241	0.033043396498464
17.770000000000	0.0095904072977760	0.033525439597002
17.800000000000	0.010846675073844	0.033980121125345
17.830000000000	0.012141051843580	0.034406611373996
17.860000000000	0.013474891787433	0.034803748540751
17.890000000000	0.014849655673148	0.035170001893837
17.920000000000	0.016266845627964	0.035503447033480
17.950000000000	0.017727937861303	0.035801753440374
17.980000000000	0.019234315848713	0.036062183889863
18.010000000000	0.020787206195094	0.036281604781999
18.040000000000	0.022387618993278	0.036456506020852
18.070000000000	0.024036294019071	0.036583028792623
18.100000000000	0.025733653595685	0.036656999451439
18.130000000000	0.027479762459223	0.036673967723186
18.160000000000	0.029274294499937	0.036629247569624
18.190000000000	0.031116505873428	0.036517959296179
18.220000000000	0.033005213696075	0.036335071808590
18.250000000000	0.034938779374792	0.036075444292617
18.280000000000	0.036915095577639	0.035733866971547
18.310000000000	0.038931575923511	0.035305100953643
18.340000000000	0.040985146641576	0.034783917484600
18.370000000000	0.043072239701666	0.034165137143285
18.400000000000	0.045188787217223	0.033443669645133
18.430000000000	0.047330217240964	0.032614554938069
18.460000000000	0.049491451378030	0.031673006191807
18.490000000000	0.051666904901645	0.030614455103140
18.520000000000	0.053850490247018	0.029434599685465
18.550000000000	0.056035624860907	0.028129454405210
18.580000000000	0.058215244386492	0.026695402199747
18.610000000000	0.060381822063568	0.025129247591429
18.640000000000	0.062527395029620	0.023428269830278
18.670000000000	0.064643597933174	0.021590274779866
18.700000000000	0.066721703938877	0.019613644127685
18.730000000000	0.068752672841057	0.017497380466438
18.760000000000	0.070727205638636	0.015241146861007
18.790000000000	0.072635804589095	0.012845299683877
18.820000000000	0.074468837480058	0.010310913757310
18.850000000000	0.076216604656833	0.0076397991640885
18.880000000000	0.077869407239153	0.0048345094550388
18.910000000000	0.079417614958575	0.0018983413618760
18.940000000000	0.080851732149371	-0.0011646735116896
18.970000000000	0.082162460621076	-0.0043497842279258
19.000000000000	0.083340758413517	-0.0076515422392871
19.030000000000	0.084377893761601	-0.011063828094294
19.060000000000	0.085265493949609	-0.014579881858873
19.090000000000	0.085995589083125	-0.018192336028109
19.120000000000	0.086560651121179	-0.021893249841594
19.150000000000	0.086953628765005	-0.025674144136214
19.180000000000	0.087167978971264	-0.029526036151912
19.210000000000	0.087197695932266	-0.033439474021196
19.240000000000	0.087037338337752	-0.037404570991514
19.270000000000	0.086682055605405	-0.041411039720090
19.300000000000	0.086127613552914	-0.045448227213833
19.330000000000	0.085370419703811	-0.049505151138285
19.360000000000	0.084407548099762	-0.053570538271317
19.390000000000	0.083236763165494	-0.057632865820307
19.420000000000	0.081856541872905	-0.061680406156635
19.450000000000	0.080266093210941	-0.065701275258898
19.480000000000	0.078465373816679	-0.069683484816751
19.510000000000	0.076455098583058	-0.073614997558847
19.540000000000	0.074236745143902	-0.077483784965976
19.570000000000	0.071812551350369	-0.081277886151916
19.600000000000	0.069185505187084	-0.084985466378848
19.630000000000	0.066359327011936	-0.088594873457281
19.660000000000	0.063338444511335	-0.092094690192499
19.690000000000	0.060127961305018	-0.095473781102305
19.720000000000	0.056733620667269	-0.098721331854762
19.750000000000	0.053161766308068	-0.10182688025794
19.780000000000	0.049419302532310	-0.10478033816128
19.810000000000	0.045513656325986	-0.10757200427226
19.840000000000	0.041452743971467	-0.11019256861284
19.870000000000	0.037244944646739	-0.11263311008951
19.900000000000	0.032899083106023	-0.11488508937266
19.930000000000	0.028424422977445	-0.11694033991915
19.960000000000	0.023830671467951	-0.11879106046833
19.990000000000	0.019127995373001	-0.12042981264815
20.020000000000	0.014327047298075	-0.12184952740140
20.050000000000	0.0094389999713213	-0.12304352375579
20.080000000000	0.0044755855294164	-0.12400554300395
20.110000000000	-0.00055086423723093	-0.12472980063527
20.140000000000	-0.0056273814192134	-0.12521105739597
20.170000000000	-0.010740334533827	-0.12544470968858
20.200000000000	-0.015875415519061	-0.12542689821496
20.230000000000	-0.021017646496509	-0.12515463238989
20.260000000000	-0.026151411165488	-0.12462592668527
20.290000000000	-0.031260514891587	-0.12383994379297
20.320000000000	-0.036328276435954	-0.12279713840194
20.350000000000	-0.041337652880125	-0.12149939455093
20.380000000000	-0.046271397697832	-0.11995014900808
20.410000000000	-0.051112250188770	-0.11815449299567
20.440000000000	-0.055843152710522	-0.11611924485247
20.470000000000	-0.060447490421499	-0.11385298691749
20.500000000000	-0.064909346679095	-0.11136606101264
20.530000000000	-0.069213765917682	-0.10867051835880
20.560000000000	-0.073347014845066	-0.10578002152034
20.590000000000	-0.077296832212122	-0.10270969795513
20.620000000000	-0.081052657277180	-0.099475946856340
20.650000000000	-0.084605827429349	-0.096096203101897
20.680000000000	-0.087949736252830	-0.092588664166756
20.710000000000	-0.091079944580931	-0.088971987694425
20.740000000000	-0.093994238751856	-0.085264968966270
20.770000000000	-0.096692632264437	-0.081486208663866
20.800000000000	-0.099177309246953	-0.077653782023913
20.830000000000	-0.10145251048947	-0.073784920692660
20.860000000000	-0.10352436513428	-0.069895718279343
