#Parameters = {CPWG_cut=1.25; GND_len=30; GND_wid=5; Strip_wid=0.85; arr1_posx=10; clrGND=5; couplline_len1=0; couplline_len2=2; couplline_len3=1; couplline_pos=1.5; dip_len=3; dip_pos=3; dip_wid=0.4; dipext_len=2; feed_pos=0.3; gap=0.2; notch_len=2; patch_wid=2.6; sub_h=0.5; via_num=10}
#"Frequency / GHz"	"R1_3_1 [1] [Re]"	"R1_3_1 [1] [Im]"
#-----------------------------------------------------
10.000000000000	-0.0062019620477608	0.0092860321151160
10.030000000000	-0.0059449243351356	0.0096236695750657
10.060000000000	-0.0056677372592975	0.0099542388175151
10.090000000000	-0.0053707234334198	0.010276170992111
10.120000000000	-0.0050543765595800	0.010587950614311
10.150000000000	-0.0047193478396671	0.010888137481759
10.180000000000	-0.0043664299964447	0.011175384871355
10.210000000000	-0.0039965399777145	0.011448454009939
10.240000000000	-0.0036107012919301	0.011706225129965
10.270000000000	-0.0032100267040667	0.011947705679705
10.300000000000	-0.0027957017285105	0.012172036427106
10.330000000000	-0.0023689690216851	0.012378496257281
10.360000000000	-0.0019311134373281	0.012566506404919
10.390000000000	-0.0014834472006003	0.012735634685519
10.420000000000	-0.0010272944215418	0.012885600006204
10.450000000000	-0.00056397403728544	0.013016277072202
10.480000000000	-9.4780271548643e-05	0.013127700793490
10.510000000000	0.00037904015596980	0.013220069479618
10.540000000000	0.00085631454671687	0.013293745535810
10.570000000000	0.0013359745179193	0.013349252086750
10.600000000000	0.0018170895922134	0.013387263799095
10.630000000000	0.0022989029976573	0.013408590184613
10.660000000000	0.0027808679726952	0.013414149866292
10.690000000000	0.0032626822881140	0.013404934688268
10.720000000000	0.0037443182134993	0.013381963138906
10.750000000000	0.0042260448267435	0.013346223309096
10.780000000000	0.0047084394422703	0.013298606482438
10.810000000000	0.0051923850553760	0.013239833393267
10.840000000000	0.0056790510889199	0.013170376123987
10.870000000000	0.0061698553878319	0.013090379469758
10.900000000000	0.0066664063186778	0.012999586299661
10.930000000000	0.0071704249567004	0.012897271917181
10.960000000000	0.0076836486220085	0.012782192607754
10.990000000000	0.0082077183835977	0.012652553411861
11.020000000000	0.0087440544956315	0.012505999654004
11.050000000000	0.0092937249689394	0.012339635890297
11.080000000000	0.0098573135157660	0.012150074735528
11.110000000000	0.010434793847736	0.011933516545582
11.140000000000	0.011025417679873	0.011685859237946
11.170000000000	0.011627623741192	0.011402835726918
11.200000000000	0.012238974584078	0.011080174640753
11.230000000000	0.012856127018514	0.010713778293018
11.260000000000	0.013474840602089	0.010299910417552
11.290000000000	0.014090026852138	0.0098353850552182
11.320000000000	0.014695839800030	0.0093177472947842
11.350000000000	0.015285806290756	0.0087454363898485
11.380000000000	0.015852992172366	0.0081179221399425
11.410000000000	0.016390198357398	0.0074358063441745
11.440000000000	0.016890178811135	0.0067008825821614
11.470000000000	0.017345870959350	0.0059161494863226
11.500000000000	0.017750627923721	0.0050857749461765
11.530000000000	0.018098441473106	0.0042150112059616
11.560000000000	0.018384144677620	0.0033100634380889
11.590000000000	0.018603583987101	0.0023779169413636
11.620000000000	0.018753751803576	0.0014261304673233
11.650000000000	0.018832872516952	0.00046260517141679
11.680000000000	0.018840437325882	-0.00050465981276764
11.710000000000	0.018777185842083	-0.0014678132721016
11.740000000000	0.018645035322995	-0.0024193871399906
11.770000000000	0.018446961227105	-0.0033525093572369
11.800000000000	0.018186835467055	-0.0042610838080876
11.830000000000	0.017869231083497	-0.0051399285292066
11.860000000000	0.017499203931060	-0.0059848656747953
11.890000000000	0.017082063237709	-0.0067927594041984
11.920000000000	0.016623143486622	-0.0075615007818698
11.950000000000	0.016127589933596	-0.0082899417694350
11.980000000000	0.015600169215241	-0.0089777832656151
12.010000000000	0.015045114971431	-0.0096254247372776
12.040000000000	0.014466016289440	-0.010233785125767
12.070000000000	0.013865754203617	-0.010804106275797
12.100000000000	0.013246488609148	-0.011337751023762
12.130000000000	0.012609694946579	-0.011836008244380
12.160000000000	0.011956247068406	-0.012299916580382
12.190000000000	0.011286539990054	-0.012730117306805
12.220000000000	0.010600643919403	-0.013126744890301
12.250000000000	0.0098984791909783	-0.013489361413985
12.280000000000	0.0091800006075319	-0.013816938299925
12.310000000000	0.0084453792768214	-0.014107885845349
12.340000000000	0.0076951703436831	-0.014360128176205
12.370000000000	0.0069304560300535	-0.014571218492018
12.400000000000	0.0061529550375944	-0.014738487095345
12.430000000000	0.0053650915294270	-0.014859212809685
12.460000000000	0.0045700194481348	-0.014930807101339
12.490000000000	0.0037716006835915	-0.014950999603562
12.520000000000	0.0029743384020565	-0.014918013822336
12.550000000000	0.0021832695132280	-0.014830722564492
12.580000000000	0.0014038226218960	-0.014688774010172
12.610000000000	0.00064164974454004	-0.014492681254144
12.640000000000	-9.7558541720930e-05	-0.014243870434297
12.670000000000	-0.00080826408326107	-0.013944685098969
12.700000000000	-0.0014852677174766	-0.013598347073659
12.730000000000	-0.0021238814006188	-0.013208876607577
12.760000000000	-0.0027200769900597	-0.012780976856597
12.790000000000	-0.0032706043953805	-0.012319889656361
12.820000000000	-0.0037730738184751	-0.011831230950904
12.850000000000	-0.0042259990553960	-0.011320815095572
12.880000000000	-0.0046288011814231	-0.010794477514333
12.910000000000	-0.0049817742339843	-0.010257904866111
12.940000000000	-0.0052860166024962	-0.0097164810059811
12.970000000000	-0.0055433336048600	-0.0091751556922649
13.000000000000	-0.0057561180779886	-0.0086383412948670
13.030000000000	-0.0059272166667256	-0.0081098408283686
13.060000000000	-0.0060597898293310	-0.0075928086009952
13.090000000000	-0.0061571733919774	-0.0070897427742587
13.120000000000	-0.0062227488175497	-0.0066025072963371
13.150000000000	-0.0062598282743835	-0.0061323791169435
13.180000000000	-0.0062715591920505	-0.0056801154007343
13.210000000000	-0.0062608513850308	-0.0052460346894958
13.240000000000	-0.0062303281311836	-0.0048301056479295
13.270000000000	-0.0061823009307529	-0.0044320371588004
13.300000000000	-0.0061187661554374	-0.0040513640747522
13.330000000000	-0.0060414205223126	-0.0036875238234035
13.360000000000	-0.0059516913686364	-0.0033399202152284
13.390000000000	-0.0058507771090603	-0.0030079721214993
13.420000000000	-0.0057396930460045	-0.0026911460667501
13.450000000000	-0.0056193178676701	-0.0023889731125003
13.480000000000	-0.0054904366700927	-0.0021010516007429
13.510000000000	-0.0053537771204576	-0.0018270382966784
13.540000000000	-0.0052100363615000	-0.0015666311606879
13.570000000000	-0.0050598973529078	-0.0013195473541076
13.600000000000	-0.0049040344627317	-0.0010855001322441
13.630000000000	-0.0047431091704407	-0.00086417801700632
13.660000000000	-0.0045777576435886	-0.00065522910940742
13.690000000000	-0.0044085726376308	-0.00045825265720452
13.720000000000	-0.0042360825984556	-0.00027279910726625
13.750000000000	-0.0040607309972538	-9.8378926024858e-05
13.780000000000	-0.0038828587983057	6.5520453972641e-05
13.810000000000	-0.0037026925752728	0.00021941103139015
13.840000000000	-0.0035203401935360	0.00036377611233033
13.870000000000	-0.0033357952235373	0.00049904025264830
13.900000000000	-0.0031489504119685	0.00062554006192931
13.930000000000	-0.0029596196876901	0.00074349861935358
13.960000000000	-0.0027675673897899	0.00085300596368292
13.990000000000	-0.0025725427414577	0.00095400761960805
14.020000000000	-0.0023743171084919	0.0010463024579131
14.050000000000	-0.0021727213123552	0.0011295504168626
14.080000000000	-0.0019676802332054	0.0012032898036565
14.110000000000	-0.0017592421370154	0.0012669631161789
14.140000000000	-0.0015476005724084	0.0013199496411310
14.170000000000	-0.0013331072697286	0.0013616025505992
14.200000000000	-0.0011162751859636	0.0013912878773960
14.230000000000	-0.00089777161393165	0.0014084226259772
14.260000000000	-0.00067840204783092	0.0014125093779132
14.290000000000	-0.00045908620600951	0.0014031650677833
14.320000000000	-0.00024082819797131	0.0013801421085590
14.350000000000	-2.4683239175914e-05	0.0013433406917800
14.380000000000	0.00018827646855094	0.0012928118226543
14.410000000000	0.00039699407713137	0.0012287514124938
14.440000000000	0.00060045625920546	0.0011514864778140
14.470000000000	0.00079771522527175	0.0010614551274836
14.500000000000	0.00098790319281630	0.00095918250513085
14.530000000000	0.0011702386011636	0.00084525515426103
14.560000000000	0.0013440241140914	0.00072029636409813
14.590000000000	0.0015086371956066	0.00058494492776897
14.620000000000	0.0016635147219153	0.00043983941132875
14.650000000000	0.0018081336491136	0.00028560951895238
14.680000000000	0.0019419901457720	0.00012287548738886
14.710000000000	0.0020645797899071	-4.7744296482550e-05
14.740000000000	0.0021753814040747	-0.00022561802853516
14.770000000000	0.0022738468606744	-0.00041007887854874
14.800000000000	0.0023593987491224	-0.00060039898996259
14.830000000000	0.0024314371898751	-0.00079576153753427
14.860000000000	0.0024893563528912	-0.00099523360694548
14.890000000000	0.0025325704448664	-0.0011977427641787
14.920000000000	0.0025605481305280	-0.0014020600646649
14.950000000000	0.0025728536090475	-0.0016067919188765
14.980000000000	0.0025691919338323	-0.0018103827045601
15.010000000000	0.0025494556909575	-0.0020111293329708
15.040000000000	0.0025137698748124	-0.0022072081857319
15.070000000000	0.0024625317412253	-0.0023967139966738
15.100000000000	0.0023964425844080	-0.0025777094192585
15.130000000000	0.0023165287642687	-0.0027482832542802
15.160000000000	0.0022241498792235	-0.0029066146685690
15.190000000000	0.0021209926975622	-0.0030510402585069
15.220000000000	0.0020090502782165	-0.0031801205351390
15.250000000000	0.0018905865734107	-0.0032927023488486
15.280000000000	0.0017680876526338	-0.0033879739337527
15.310000000000	0.0016442014629754	-0.0034655096223196
15.340000000000	0.0015216686943460	-0.0035253018320959
15.370000000000	0.0014032478080920	-0.0035677786195644
15.400000000000	0.0012916375849063	-0.0035938058827666
15.430000000000	0.0011894006376165	-0.0036046741207687
15.460000000000	0.0010988912160940	-0.0036020704693526
15.490000000000	0.0010221903192203	-0.0035880374761349
15.520000000000	0.00096105064961845	-0.0035649207086505
15.550000000000	0.00091685333834554	-0.0035353077692445
15.580000000000	0.00089057767414815	-0.0035019615961444
15.610000000000	0.00088278434440145	-0.0034677510492421
15.640000000000	0.00089361198196643	-0.0034355817138645
15.670000000000	0.00092278616003774	-0.0034083296209495
15.700000000000	0.00096963942516202	-0.0033887802036249
15.730000000000	0.0010331405372736	-0.0033795743231282
15.760000000000	0.0011119308140616	-0.0033831626420387
15.790000000000	0.0012043653624546	-0.0034017690432276
15.820000000000	0.0013085570177496	-0.0034373632311947
15.850000000000	0.0014224209851283	-0.0034916421469273
15.880000000000	0.0015437184639700	-0.0035660194096882
15.910000000000	0.0016700979006320	-0.0036616216918963
15.940000000000	0.0017991329243823	-0.0037792907489568
15.970000000000	0.0019283564372322	-0.0039195897663393
16.000000000000	0.0020552907168651	-0.0040828127429187
16.030000000000	0.0021774737229225	-0.0042689957851309
16.060000000000	0.0022924820477802	-0.0044779294162611
16.090000000000	0.0023979511094368	-0.0047091712799855
16.120000000000	0.0024915932413979	-0.0049620589058868
16.150000000000	0.0025712142969202	-0.0052357224767584
16.180000000000	0.0026347292656461	-0.0055290977661239
16.210000000000	0.0026801772194447	-0.0058409395783079
16.240000000000	0.0027057356860369	-0.0061698361086212
16.270000000000	0.0027097343210747	-0.0065142246421571
16.300000000000	0.0026906675390759	-0.0068724089292408
16.330000000000	0.0026472055957138	-0.0072425784246616
16.360000000000	0.0025782035084137	-0.0076228293742264
16.390000000000	0.0024827071724865	-0.0080111874987198
16.420000000000	0.0023599560819686	-0.0084056317877150
16.450000000000	0.0022093821956764	-0.0088041187000162
16.480000000000	0.0020306046896591	-0.0092046058980255
16.510000000000	0.0018234205903079	-0.0096050745400782
16.540000000000	0.0015877915656198	-0.010003549131852
16.570000000000	0.0013238274399718	-0.010398114002168
16.600000000000	0.0010317672636732	-0.010786925618796
16.630000000000	0.00071195898729504	-0.011168220187245
16.660000000000	0.00036483894067187	-0.011540316264079
16.690000000000	-9.0876186067061e-06	-0.011901612443966
16.720000000000	-0.00040926365166103	-0.012250580520895
16.750000000000	-0.00083509406899305	-0.012585754851101
16.780000000000	-0.0012859551483510	-0.012905718931278
16.810000000000	-0.0017611990312645	-0.013209090426526
16.840000000000	-0.0022601530324355	-0.013494506018926
16.870000000000	-0.0027821138677740	-0.013760607487014
16.900000000000	-0.0033263372793978	-0.014006030363592
16.930000000000	-0.0038920238809624	-0.014229396357439
16.960000000000	-0.0044783023377928	-0.014429310474357
16.990000000000	-0.0050842112110226	-0.014604363452581
17.020000000000	-0.0057086809168255	-0.014753139760481
17.050000000000	-0.0063505172715119	-0.014874231017659
17.080000000000	-0.0070083880094717	-0.014966254322929
17.110000000000	-0.0076808134803166	-0.015027874631840
17.140000000000	-0.0083661624683028	-0.015057830047268
17.170000000000	-0.0090626537515898	-0.015054958688939
17.200000000000	-0.0097683636560902	-0.015018225704569
17.230000000000	-0.010481239486102	-0.014946748982414
17.260000000000	-0.011199118359311	-0.014839822220023
17.290000000000	-0.011919750662865	-0.014696934186864
17.320000000000	-0.012640827101786	-0.014517783272776
17.350000000000	-0.013360008146800	-0.014302286717827
17.380000000000	-0.014074954614850	-0.014050584246990
17.410000000000	-0.014783358133205	-0.013763036158660
17.440000000000	-0.015482970341139	-0.013440216214017
17.470000000000	-0.016171629858345	-0.013082899922380
17.500000000000	-0.016847286277794	-0.012692048998857
17.530000000000	-0.017508020699912	-0.012268792873820
17.560000000000	-0.018152062590053	-0.011814408155622
17.590000000000	-0.018777802987994	-0.011330296892130
17.620000000000	-0.019383804304706	-0.010817964354090
17.650000000000	-0.019968807090419	-0.010278996890699
17.680000000000	-0.020531734237627	-0.0097150402061043
17.710000000000	-0.021071693088439	-0.0091277781984722
17.740000000000	-0.021587975850447	-0.0085189123144273
17.770000000000	-0.022080058599040	-0.0078901412227851
17.800000000000	-0.022547598972841	-0.0072431405204255
17.830000000000	-0.022990432473766	-0.0065795421618184
17.860000000000	-0.023408567087882	-0.0059009133572845
17.890000000000	-0.023802175772375	-0.0052087348110885
17.920000000000	-0.024171586230493	-0.0045043783590251
17.950000000000	-0.024517267339725	-0.0037890842995628
17.980000000000	-0.024839811622201	-0.0030639389706850
18.010000000000	-0.025139913257108	-0.0023298533805991
18.040000000000	-0.025418341331341	-0.0015875439272278
18.070000000000	-0.025675908297202	-0.00083751641268373
18.100000000000	-0.025913433937588	-8.0054651866107e-05
18.130000000000	-0.026131705506194	0.00068478502852822
18.160000000000	-0.026331435084473	0.0014571722130681
18.190000000000	-0.026513215547662	0.0022374927717338
18.220000000000	-0.026677476828329	0.0030263305312671
18.250000000000	-0.026824444379313	0.0038244399916886
18.280000000000	-0.026954101845389	0.0046327102989063
18.310000000000	-0.027066159938263	0.0054521211785940
18.340000000000	-0.027160033365074	0.0062836920282826
18.370000000000	-0.027234827388418	0.0071284258185474
18.400000000000	-0.027289335207861	0.0079872498362601
18.430000000000	-0.027322046869835	0.0088609555829907
18.460000000000	-0.027331169863471	0.0097501402960670
18.490000000000	-0.027314660978992	0.010655152573232
18.520000000000	-0.027270268430526	0.011576044448743
18.550000000000	-0.027195582715222	0.012512531994080
18.580000000000	-0.027088094231453	0.013463966115346
18.610000000000	-0.026945255341524	0.014429314716568
18.640000000000	-0.026764544362355	0.015407156825591
18.670000000000	-0.026543528914924	0.016395688674660
18.700000000000	-0.026279926163379	0.017392741131264
18.730000000000	-0.025971657720327	0.018395807326035
18.760000000000	-0.025616897367732	0.019402078859804
18.790000000000	-0.025214110216340	0.020408488621562
18.820000000000	-0.024762082466194	0.021411758034667
18.850000000000	-0.024259941497909	0.022408446482033
18.880000000000	-0.023707166578678	0.023395000742711
18.910000000000	-0.023103590969353	0.024367802492054
18.940000000000	-0.022449396635229	0.025323212255005
18.970000000000	-0.021745103065731	0.026257608627875
19.000000000000	-0.020991551879120	0.027167422063146
19.030000000000	-0.020189888919781	0.028049163005503
19.060000000000	-0.019341545451218	0.028899444636568
19.090000000000	-0.018448219821611	0.029715000894302
19.120000000000	-0.017511860654314	0.030492700750195
19.150000000000	-0.016534652224172	0.031229559930619
19.180000000000	-0.015519002258007	0.031922751345368
19.210000000000	-0.014467531981939	0.032569615434675
19.240000000000	-0.013383067866109	0.033167671474969
19.270000000000	-0.012268634221162	0.033714630612384
19.300000000000	-0.011127445605711	0.034208411049459
19.330000000000	-0.0099628979261468	0.034647155428056
19.360000000000	-0.0087785571549791	0.035029250067326
19.390000000000	-0.0075781447558215	0.035353345366450
19.420000000000	-0.0063655191659433	0.035618376401471
19.450000000000	-0.0051446530254345	0.035823582561336
19.480000000000	-0.0039196062227842	0.035968524998984
19.510000000000	-0.0026944952130229	0.036053100727175
19.540000000000	-0.0014734594183707	0.036077552362666
19.570000000000	-0.00026062580672030	0.036042472801709
19.600000000000	0.00093992707006690	0.035948804469912
19.630000000000	0.0021242042300449	0.035797833197039
19.660000000000	0.0032883273250772	0.035591177183450
19.690000000000	0.0044285645294983	0.035330771908438
19.720000000000	0.0055413564831326	0.035018852141712
19.750000000000	0.0066233379260850	0.034657932422581
19.780000000000	0.0076713551285666	0.034250787440187
19.810000000000	0.0086824797005223	0.033800433666373
19.840000000000	0.0096540198165341	0.033310113357528
19.870000000000	0.010583530264718	0.032783281663791
19.900000000000	0.011468822981234	0.032223597087886
19.930000000000	0.012307979829452	0.031634914958380
19.960000000000	0.013099369300670	0.031021282970221
19.990000000000	0.013841668541486	0.030386937252335
20.020000000000	0.014533891656652	0.029736296903780
20.050000000000	0.015175424617079	0.029073954550679
20.080000000000	0.015766066357110	0.028404660263302
20.110000000000	0.016306074823479	0.027733296173437
20.140000000000	0.016796215900584	0.027064839369179
20.170000000000	0.017237812349278	0.026404311123309
20.200000000000	0.017632789226890	0.025756711219826
20.230000000000	0.017983711768606	0.025126937049655
20.260000000000	0.018293811459631	0.024519688202468
20.290000000000	0.018566996055314	0.023939358423346
20.320000000000	0.018807839636874	0.023389917956482
20.350000000000	0.019021549427543	0.022874790382648
20.380000000000	0.019213907020466	0.022396728991681
20.410000000000	0.019391182846722	0.021957698439749
20.440000000000	0.019560024080698	0.021558767858483
20.470000000000	0.019727317665477	0.021200021659890
20.500000000000	0.019900031655453	0.020880493988052
20.530000000000	0.020085039522716	0.020598132099780
20.560000000000	0.020288933363082	0.020349792929808
20.590000000000	0.020517832977801	0.020131275754203
20.620000000000	0.020777198520868	0.019937392273087
20.650000000000	0.021071654729978	0.019762073674032
20.680000000000	0.021404834663867	0.019598512407965
20.710000000000	0.021779250338012	0.019439334615409
20.740000000000	0.022196196698820	0.019276797489035
20.770000000000	0.022655694044684	0.019103004449800
20.800000000000	0.023156472356167	0.018910129937135
