#Parameters = {CPWG_cut=1.25; GND_len=30; GND_wid=5; Strip_wid=0.85; arr1_posx=10; clrGND=5; couplline_len1=0; couplline_len2=2; couplline_len3=1; couplline_pos=1.5; dip_len=3; dip_pos=3; dip_wid=0.4; dipext_len=2; feed_pos=0.3; gap=0.2; notch_len=2; patch_wid=2.6; sub_h=0.5; via_num=10}
#"Frequency / GHz"	"R1_5_6 [1] [Real/Imaginary Part] [Re]"	"R1_5_6 [1] [Real/Imaginary Part] [Im]"
#-------------------------------------------------------------------------------------------------
10.000000000000	0.0017760278651248	0.031756786925289
10.030000000000	0.0027005661651024	0.032236969326144
10.060000000000	0.0036562390698462	0.032687250477686
10.090000000000	0.0046405562325949	0.033107893185060
10.120000000000	0.0056517386208915	0.033499719806669
10.150000000000	0.0066888532408338	0.033863855677824
10.180000000000	0.0077518676138804	0.034201442741157
10.210000000000	0.0088416180269382	0.034513347432291
10.240000000000	0.0099596925888973	0.034799887883712
10.270000000000	0.011108237240103	0.035060604525855
10.300000000000	0.012289699517615	0.035294095204938
10.330000000000	0.013506530540665	0.035497931177333
10.360000000000	0.014760869871605	0.035668664099637
10.390000000000	0.016054240250943	0.035801926853889
10.420000000000	0.017387279453931	0.035892623263725
10.450000000000	0.018759534576288	0.035935194059846
10.480000000000	0.020169339996820	0.035923939444758
10.510000000000	0.021613794317177	0.035853372858186
10.540000000000	0.023088844126113	0.035718576551077
10.570000000000	0.024589473986883	0.035515527718799
10.600000000000	0.026109993203911	0.035241364458040
10.630000000000	0.027644401342543	0.034894563764581
10.660000000000	0.029186806813060	0.034475009070149
10.690000000000	0.030731866704251	0.033983932140290
10.720000000000	0.032275211991844	0.033423723075565
10.750000000000	0.033813820653018	0.032797612095906
10.780000000000	0.035346302328074	0.032109237066809
10.810000000000	0.036873062038716	0.031362120619223
10.840000000000	0.038396316959623	0.030559089493451
10.870000000000	0.039919949016721	0.029701675722015
10.900000000000	0.041449186649080	0.028789543876122
10.930000000000	0.042990120775104	0.027819990396144
10.960000000000	0.044549072097567	0.026787559745794
10.990000000000	0.046131838560185	0.025683817709812
11.020000000000	0.047742862222762	0.024497314743606
11.050000000000	0.049384363296367	0.023213762234479
11.080000000000	0.051055494923166	0.021816432390649
11.110000000000	0.052751574996513	0.020286778936650
11.140000000000	0.054463450583711	0.018605261678096
11.170000000000	0.056177046237490	0.016752344186009
11.200000000000	0.057873139790256	0.014709621230725
11.230000000000	0.059527398467392	0.012461022008389
11.260000000000	0.061110694888075	0.0099940273853438
11.290000000000	0.062589707474114	0.0073008349190743
11.320000000000	0.063927793820180	0.0043794046856456
11.350000000000	0.065086109632733	0.0012343221164486
11.380000000000	0.066024930880629	-0.0021225789527576
11.410000000000	0.066705123739525	-0.0056718793015106
11.440000000000	0.067089696578391	-0.0093865561950944
11.470000000000	0.067145361302809	-0.013232301130404
11.500000000000	0.066844028314791	-0.017168173338923
11.530000000000	0.066164160425019	-0.021147571369904
11.560000000000	0.065091916268530	-0.025119488109778
11.590000000000	0.063622022890578	-0.029029999201867
11.620000000000	0.061758329712903	-0.032823921912926
11.650000000000	0.059514011383223	-0.036446571809529
11.680000000000	0.056911404207709	-0.039845538731479
11.710000000000	0.053981479007695	-0.042972401833093
11.740000000000	0.050762971311216	-0.045784306015572
11.770000000000	0.047301206774694	-0.048245328754515
11.800000000000	0.043646674682995	-0.050327576755516
11.830000000000	0.039853414472021	-0.052011965450962
11.860000000000	0.035977288802373	-0.053288650306614
11.890000000000	0.032074221339709	-0.054157096329674
11.920000000000	0.028198477854831	-0.054625790077402
11.950000000000	0.024401065575609	-0.054711615856951
11.980000000000	0.020728318173880	-0.054438933726821
12.010000000000	0.017220722842781	-0.053838410501855
12.040000000000	0.013912032290063	-0.052945665520709
12.070000000000	0.010828688960025	-0.051799799940059
12.100000000000	0.0079895723116970	-0.050441881473137
12.130000000000	0.0054060634697670	-0.048913455721406
12.160000000000	0.0030824059512358	-0.047255150716825
12.190000000000	0.0010163273014021	-0.045505433371971
12.220000000000	-0.00080012493177624	-0.043699565787340
12.250000000000	-0.0023795878411593	-0.041868796497918
12.280000000000	-0.0037382883841221	-0.040039807565146
12.310000000000	-0.0048949106270010	-0.038234423794961
12.340000000000	-0.0058694844653508	-0.036469576143410
12.370000000000	-0.0066823500929876	-0.034757498357761
12.400000000000	-0.0073532445607052	-0.033106124790150
12.430000000000	-0.0079005466760208	-0.031519648667803
12.460000000000	-0.0083407049455594	-0.029999194293537
12.490000000000	-0.0086878610065910	-0.028543553879607
12.520000000000	-0.0089536687977288	-0.027149939991228
12.550000000000	-0.0091472983061954	-0.025814707712372
12.580000000000	-0.0092756027434685	-0.024534006298100
12.610000000000	-0.0093434199669384	-0.023304327759519
12.640000000000	-0.0093539732601700	-0.022122928952596
12.670000000000	-0.0093093334223918	-0.020988113663654
12.700000000000	-0.0092109035427174	-0.019899371238983
12.730000000000	-0.0090598897251253	-0.018857377856718
12.760000000000	-0.0088577251155261	-0.017863875014708
12.790000000000	-0.0086064204663216	-0.016921446736793
12.820000000000	-0.0083088216670899	-0.016033222034768
12.850000000000	-0.0079687626255148	-0.015202532098871
12.880000000000	-0.0075911100345805	-0.014432552467983
12.910000000000	-0.0071817043637237	-0.013725959138176
12.940000000000	-0.0067472083703584	-0.013084624422148
12.970000000000	-0.0062948801353476	-0.012509373699947
13.000000000000	-0.0058322917794422	-0.011999818413209
13.030000000000	-0.0053670174368818	-0.011554274212127
13.060000000000	-0.0049063146937242	-0.011169766544737
13.090000000000	-0.0044568226125783	-0.010842119644574
13.120000000000	-0.0040242968457039	-0.010566119241415
13.150000000000	-0.0036133984624286	-0.010335734734460
13.180000000000	-0.0032275483325167	-0.010144383279976
13.210000000000	-0.0028688536049348	-0.0099852164031751
13.240000000000	-0.0025381074051264	-0.0098514093854665
13.270000000000	-0.0022348577317234	-0.0097364347352674
13.300000000000	-0.0019575370119614	-0.0096343033600431
13.330000000000	-0.0017036401563745	-0.0095397603768551
13.360000000000	-0.0014699364397353	-0.0094484265282583
13.390000000000	-0.0012526992379380	-0.0093568805765003
13.420000000000	-0.0010479375875162	-0.0092626824903055
13.450000000000	-0.00085161463328246	-0.0091643413906738
13.480000000000	-0.00065984013774458	-0.0090612358003073
13.510000000000	-0.00046902712606238	-0.0089534965185473
13.540000000000	-0.00027600616911317	-0.0088418642646656
13.570000000000	-7.8094477228852e-05	-0.0087275350208075
13.600000000000	0.00012687940104649	-0.0086120057662912
13.630000000000	0.00034059117726015	-0.0084969321081847
13.660000000000	0.00056426986655066	-0.0083840073265198
13.690000000000	0.00079877139791409	-0.0082748697659263
13.720000000000	0.0010446667267813	-0.0081710425534876
13.750000000000	0.0013023340833917	-0.0080739065556262
13.780000000000	0.0015720455458274	-0.0079847045510912
13.810000000000	0.0018540394482721	-0.0079045720167489
13.840000000000	0.0021485720771528	-0.0078345878834904
13.870000000000	0.0024559444831134	-0.0077758372560647
13.900000000000	0.0027765028327768	-0.0077294774789783
13.930000000000	0.0031106133208006	-0.0076967990845430
13.960000000000	0.0034586150488528	-0.0076792740315817
13.990000000000	0.0038207562682519	-0.0076785851325447
14.020000000000	0.0041971208301731	-0.0076966325262350
14.050000000000	0.0045875524930682	-0.0077355153047725
14.080000000000	0.0049915848574125	-0.0077974887517601
14.110000000000	0.0054083841450840	-0.0078848998977254
14.140000000000	0.0058367108798504	-0.0080001060669398
14.170000000000	0.0062749048682408	-0.0081453826226793
14.200000000000	0.0067208958744100	-0.0083228271009480
14.230000000000	0.0071722402001203	-0.0085342672876129
14.260000000000	0.0076261812029580	-0.0087811805234393
14.290000000000	0.0080797297889992	-0.0090646306492346
14.320000000000	0.0085297592587060	-0.0093852276095296
14.350000000000	0.0089731076950942	-0.0097431129377612
14.380000000000	0.0094066804501171	-0.010137972297834
14.410000000000	0.0098275452523408	-0.010569074122327
14.440000000000	0.010233013022375	-0.011035331336418
14.470000000000	0.010620698591686	-0.011535381349543
14.500000000000	0.010988557083525	-0.012067678073012
14.530000000000	0.011334893606101	-0.012630588788945
14.560000000000	0.011658345978713	-0.013222488322125
14.590000000000	0.011957842300766	-0.013841843176281
14.620000000000	0.012232537121210	-0.014487279069652
14.650000000000	0.012481731624982	-0.015157626578676
14.680000000000	0.012704784499877	-0.015851941273590
14.710000000000	0.012901020890955	-0.016569496677078
14.740000000000	0.013069647037948	-0.017309750449452
14.770000000000	0.013209677813837	-0.018072286246629
14.800000000000	0.013319883471721	-0.018856735559652
14.830000000000	0.013398760532811	-0.019662685391566
14.860000000000	0.013444530014672	-0.020489578748756
14.890000000000	0.013455164234042	-0.021336615541606
14.920000000000	0.013428441366012	-0.022202661563737
14.950000000000	0.013362024948572	-0.023086172749731
14.980000000000	0.013253563729292	-0.023985140937423
15.010000000000	0.013100805783217	-0.024897065956728
15.040000000000	0.012901719786749	-0.025818957136463
15.070000000000	0.012654615778004	-0.026747365388721
15.100000000000	0.012358257700773	-0.027678445033582
15.130000000000	0.012011960510222	-0.028608042603827
15.160000000000	0.011615665571354	-0.029531808149717
15.190000000000	0.011169989431652	-0.030445323160519
15.220000000000	0.010676242696913	-0.031344238220004
15.250000000000	0.010136417566073	-0.032224412974818
15.280000000000	0.0095531444594920	-0.033082050940979
15.310000000000	0.0089296199791444	-0.033913822094194
15.340000000000	0.0082695100507354	-0.034716967040969
15.370000000000	0.0075768334170074	-0.035489377778304
15.400000000000	0.0068558316020364	-0.036229651526617
15.430000000000	0.0061108320003314	-0.036937115754968
15.460000000000	0.0053461108449551	-0.037611824195109
15.490000000000	0.0045657624892535	-0.038254525248470
15.520000000000	0.0037735807392856	-0.038866605625143
15.550000000000	0.0029729569650553	-0.039450013230418
15.580000000000	0.0021667984829730	-0.040007164168818
15.610000000000	0.0013574693358661	-0.040540839230347
15.640000000000	0.00054675420049541	-0.041054075348434
15.670000000000	-0.00026415517744248	-0.041550057290617
15.700000000000	-0.0010746527983718	-0.042032014302048
15.730000000000	-0.0018846932066202	-0.042503125629360
15.760000000000	-0.0026947516872229	-0.042966437883637
15.790000000000	-0.0035057736640238	-0.043424796139397
15.820000000000	-0.0043191171877021	-0.043880789596196
15.850000000000	-0.0051364922095466	-0.044336711630194
15.880000000000	-0.0059598999054109	-0.044794533202805
15.910000000000	-0.0067915747002891	-0.045255887925276
15.940000000000	-0.0076339309137287	-0.045722066635089
15.970000000000	-0.0084895151706429	-0.046194019135643
16.000000000000	-0.0093609649702531	-0.046672360777461
16.030000000000	-0.010250973140211	-0.047157381791070
16.060000000000	-0.011162257373807	-0.047649057677267
16.090000000000	-0.012097533690855	-0.048147059467000
16.120000000000	-0.013059492494970	-0.048650763221581
16.150000000000	-0.014050775921113	-0.049159258694623
16.180000000000	-0.015073955359991	-0.049671357564519
16.210000000000	-0.016131508377503	-0.050185602023788
16.240000000000	-0.017225794674227	-0.050700274745282
16.270000000000	-0.018359031200792	-0.051213411316303
16.300000000000	-0.019533267006730	-0.051722816137378
16.330000000000	-0.020750358802088	-0.052226082536327
16.360000000000	-0.022011948509051	-0.052720617477827
16.390000000000	-0.023319444241931	-0.053203670793352
16.420000000000	-0.024674006158539	-0.053672368362694
16.450000000000	-0.026076538469702	-0.054123748196952
16.480000000000	-0.027527688587111	-0.054554797952653
16.510000000000	-0.029027853957612	-0.054962492091418
16.540000000000	-0.030577196611109	-0.055343826723324
16.570000000000	-0.032175664884446	-0.055695850156889
16.600000000000	-0.033823021224715	-0.056015687331812
16.630000000000	-0.035518874472048	-0.056300556625259
16.660000000000	-0.037262714619896	-0.056547777976678
16.690000000000	-0.039053947787482	-0.056754771836179
16.720000000000	-0.040891929040855	-0.056919049063625
16.750000000000	-0.042775990778354	-0.057038192540306
16.780000000000	-0.044705464651118	-0.057109831851292
16.810000000000	-0.046679695402953	-0.057131612905394
16.840000000000	-0.048698045556205	-0.057101164739255
16.870000000000	-0.050759890500553	-0.057016065970460
16.900000000000	-0.052864604211360	-0.056873813402578
16.930000000000	-0.055011536481536	-0.056671795138168
16.960000000000	-0.057199983144414	-0.056407270234225
16.990000000000	-0.059429151248683	-0.056077356462536
17.020000000000	-0.061698121482126	-0.055679027151495
17.050000000000	-0.064005810302806	-0.055209117431639
17.080000000000	-0.066350934212409	-0.054664339535598
17.110000000000	-0.068731978399279	-0.054041306166876
17.140000000000	-0.071147171605756	-0.053336560400333
17.170000000000	-0.073594468566229	-0.052546610153240
17.200000000000	-0.076071540760313	-0.051667965001594
17.230000000000	-0.078575775578325	-0.050697173031407
17.260000000000	-0.081104283356073	-0.049630855513835
17.290000000000	-0.083653911154143	-0.048465737466242
17.320000000000	-0.086221261679920	-0.047198672584537
17.350000000000	-0.088802715416013	-0.045826661569181
17.380000000000	-0.091394453852699	-0.044346863472877
17.410000000000	-0.093992481736231	-0.042756600321279
17.440000000000	-0.096592646436715	-0.041053355847091
17.470000000000	-0.099190652891028	-0.039234769683546
17.500000000000	-0.10178207305731	-0.037298628743259
17.530000000000	-0.10436234938634	-0.035242857731254
17.560000000000	-0.10692679242273	-0.033065510787966
17.590000000000	-0.10947057324320	-0.030764766125162
17.620000000000	-0.11198871196869	-0.028338925216338
17.650000000000	-0.11447606400582	-0.025786417658439
17.680000000000	-0.11692730594376	-0.023105812271444
17.710000000000	-0.11933692313012	-0.020295834393151
17.740000000000	-0.12169920086278	-0.017355388711010
17.770000000000	-0.12400822086901	-0.014283586404289
17.800000000000	-0.12625786431748	-0.011079774898921
17.830000000000	-0.12844182205726	-0.0077435682070396
17.860000000000	-0.13055361214450	-0.0042748756654955
17.890000000000	-0.13258660405511	-0.00067392692107900
17.920000000000	-0.13453404834587	0.0030587087624479
17.950000000000	-0.13638910997243	0.0069221103921261
17.980000000000	-0.13814490304965	0.010915001284085
18.010000000000	-0.13979452458894	0.015035753535917
18.040000000000	-0.14133108469477	0.019282400485081
18.070000000000	-0.14274773086125	0.023652655971772
18.100000000000	-0.14403766437503	0.028143938549155
18.130000000000	-0.14519414738114	0.032753398222621
18.160000000000	-0.14621049986865	0.037477942902371
18.190000000000	-0.14708008663248	0.042314261557590
18.220000000000	-0.14779629511064	0.047258841089332
18.250000000000	-0.14835250581726	0.052307974199230
18.280000000000	-0.14874205782992	0.057457756011497
18.310000000000	-0.14895821238573	0.062704067878393
18.340000000000	-0.14899411804605	0.068042547621254
18.370000000000	-0.14884278106805	0.073468546375205
18.400000000000	-0.14849704455407	0.078977073152181
18.430000000000	-0.14794957963349	0.084562729147251
18.460000000000	-0.14719289138438	0.090219634621635
18.490000000000	-0.14621934145570	0.095941351843529
18.520000000000	-0.14502118845482	0.10172080800643
18.550000000000	-0.14359064617880	0.10755022224064
18.580000000000	-0.14191995875861	0.11342104077031
18.610000000000	-0.14000149082254	0.11932388394878
18.640000000000	-0.13782782993471	0.12524850834840
18.670000000000	-0.13539189788537	0.13118378632716
18.700000000000	-0.13268706694772	0.13711770459416
18.730000000000	-0.12970727700234	0.14303738231312
18.760000000000	-0.12644714947633	0.14892910828596
18.790000000000	-0.12290209434432	0.15477839581723
18.820000000000	-0.11906840696728	0.16057005303952
18.850000000000	-0.11494335225974	0.16628826583640
18.880000000000	-0.11052523452232	0.17191669007471
18.910000000000	-0.10581345218920	0.17743854967844
18.940000000000	-0.10080853764923	0.18283673714837
18.970000000000	-0.095512183137836	0.18809391344330
19.000000000000	-0.089927254401432	0.19319260465889
19.030000000000	-0.084057794355476	0.19811529362341
19.060000000000	-0.077909019255432	0.20284450531582
19.090000000000	-0.071487309957821	0.20736288583535
19.120000000000	-0.064800200666639	0.21165327544332
19.150000000000	-0.057856367158836	0.21569877689073
19.180000000000	-0.050665615898555	0.21948282078148
19.210000000000	-0.043238874736191	0.22298923005564
19.240000000000	-0.035588185108337	0.22620228577994
19.270000000000	-0.027726694877599	0.22910679629487
19.300000000000	-0.019668650246762	0.23168817139847
19.330000000000	-0.011429384614394	0.23393250267562
19.360000000000	-0.0030253018627662	0.23582665035509
19.390000000000	0.0055261485771245	0.23735833625510
19.420000000000	0.014206507433551	0.23851624153156
19.450000000000	0.022996354269118	0.23929010714503
19.480000000000	0.031875370729912	0.23967083428413
19.510000000000	0.040822419198753	0.23965058148905
19.540000000000	0.049815636772462	0.23922285495861
19.570000000000	0.058832543510719	0.23838258853242
19.600000000000	0.067850162947222	0.23712621012771
19.630000000000	0.076845151992604	0.23545169196854
19.660000000000	0.085793936668426	0.23335858274207
19.690000000000	0.094672849656932	0.23084802079850
19.720000000000	0.10345826548179	0.22792272860947
19.750000000000	0.11212672927846	0.22458698983096
19.780000000000	0.12065507557457	0.22084661139334
19.810000000000	0.12902053426138	0.21670887397347
19.840000000000	0.13720082195221	0.21218247491061
19.870000000000	0.14517421812857	0.20727746804060
19.900000000000	0.15291962678375	0.20200520499157
19.930000000000	0.16041662559331	0.19637828218368
19.960000000000	0.16764550586789	0.19041049710534
19.990000000000	0.17458730757764	0.18411681642752
20.020000000000	0.18122385448642	0.17751335722034
20.050000000000	0.18753779482197	0.17061738103159
20.080000000000	0.19351265288210	0.16344729897337
20.110000000000	0.19913289650868	0.15602268435186
20.140000000000	0.20438402445324	0.14836428788412
20.170000000000	0.20925267634442	0.14049404929090
20.200000000000	0.21372676631053	0.13243509814089
20.230000000000	0.21779563940142	0.12421173633838
20.260000000000	0.22145024790352	0.11584939465649
20.290000000000	0.22468334257886	0.10737455625751
20.320000000000	0.22748967191672	0.098814641210371
20.350000000000	0.22986618079997	0.090197847582064
20.380000000000	0.23181219868005	0.081552946677291
20.410000000000	0.23332960653167	0.072909032333187
20.440000000000	0.23442297159995	0.064295226721460
20.470000000000	0.23509963930885	0.055740347728770
20.500000000000	0.23536977268306	0.047272545527295
20.530000000000	0.23524633122307	0.038918918259537
20.560000000000	0.23474498330477	0.030705118701353
20.590000000000	0.23388394875506	0.022654965208078
20.620000000000	0.23268377116224	0.014790071089300
20.650000000000	0.23116702256650	0.0071295067281992
20.680000000000	0.22935794628357	-0.00031049177211331
20.710000000000	0.22728204657728	-0.0075167548649785
20.740000000000	0.22496563655613	-0.014479342095395
20.770000000000	0.22243535787632	-0.021191626689408
20.800000000000	0.21971768746828	-0.027650296911210
20.830000000000	0.21683844746911	-0.033855272138017
20.860000000000	0.21382233478244	-0.039809534998852
20.890000000000	0.21069248617955	-0.045518884310440
20.920000000000	0.20747009362012	-0.050991616752816
20.950000000000	0.20417408256738	-0.056238148099737
20.980000000000	0.20082086359218	-0.061270587213393
