#Parameters = {CPWG_cut=1.25; GND_len=30; GND_wid=5; Strip_wid=0.85; arr1_posx=10; clrGND=5; couplline_len1=0; couplline_len2=2; couplline_len3=1; couplline_pos=1.5; dip_len=3; dip_pos=3; dip_wid=0.4; dipext_len=2; feed_pos=0.3; gap=0.2; notch_len=2; patch_wid=2.6; sub_h=0.5; via_num=10}
#"Frequency / GHz"	"R1_5_6 [1] [Re]"	"R1_5_6 [1] [Im]"
#-----------------------------------------------------
10.000000000000	-0.012163885780579	0.010575017470656
10.030000000000	-0.012695245129434	0.011020325561844
10.060000000000	-0.013235578136143	0.011548317636249
10.090000000000	-0.013776999335018	0.012162731143495
10.120000000000	-0.014311146159170	0.012866649771352
10.150000000000	-0.014829224945443	0.013662461176076
10.180000000000	-0.015322058864730	0.014551816451753
10.210000000000	-0.015780138063552	0.015535591076167
10.240000000000	-0.016193672404712	0.016613847176422
10.270000000000	-0.016552647272910	0.017785797085182
10.300000000000	-0.016846882962013	0.019049768303073
10.330000000000	-0.017066098180758	0.020403170139540
10.360000000000	-0.017199978201251	0.021842462467620
10.390000000000	-0.017238248128317	0.023363127191598
10.420000000000	-0.017170751687598	0.024959643184341
10.450000000000	-0.016987535817074	0.026625465597090
10.480000000000	-0.016678941202442	0.028353010572680
10.510000000000	-0.016235698724374	0.030133646497935
10.540000000000	-0.015649031588992	0.031957693007349
10.570000000000	-0.014910762696702	0.033814428993426
10.600000000000	-0.014013426574117	0.035692110885820
10.630000000000	-0.012950384955470	0.037578002428606
10.660000000000	-0.011715944859890	0.039458417111085
10.690000000000	-0.010305477776345	0.041318774291489
10.720000000000	-0.0087155383456505	0.043143669895351
10.750000000000	-0.0069439807257538	0.044916962372469
10.780000000000	-0.0049900706492805	0.046621874360988
10.810000000000	-0.0028545910373549	0.048241110237795
10.840000000000	-0.00053993892676660	0.049756989435795
10.870000000000	0.0019497885962254	0.051151595086345
10.900000000000	0.0046087217785650	0.052406937205634
10.930000000000	0.0074291611884893	0.053505129294105
10.960000000000	0.010401538510936	0.054428576865835
10.990000000000	0.013514397211423	0.055160176078138
11.020000000000	0.016754394935103	0.055683520298626
11.050000000000	0.020106329261169	0.055983112135923
11.080000000000	0.023553188136761	0.056044578179030
11.110000000000	0.027076225972947	0.055854883446752
11.140000000000	0.030655066003377	0.055402542349684
11.170000000000	0.034267829089795	0.054677822819400
11.200000000000	0.037891288715106	0.053672940168108
11.230000000000	0.041501051441905	0.052382237211778
11.260000000000	0.045071761641061	0.050802347223667
11.290000000000	0.048577328820162	0.048932336385516
11.320000000000	0.051991175414957	0.046773822571052
11.350000000000	0.055286502457949	0.044331067530327
11.380000000000	0.058436570116632	0.041611039841486
11.410000000000	0.061414989708600	0.038623446355694
11.440000000000	0.064196023461124	0.035380730276204
11.470000000000	0.066754887996378	0.031898034477780
11.500000000000	0.069068057298216	0.028193129180843
11.530000000000	0.071113560757896	0.024286303637385
11.560000000000	0.072871271810201	0.020200222053707
11.590000000000	0.074323182661149	0.015959744558479
11.620000000000	0.075453660676955	0.011591714613000
11.650000000000	0.076249682151498	0.0071247148430313
11.680000000000	0.076701039396170	0.0025887938372189
11.710000000000	0.076800517398984	-0.0019848330049270
11.740000000000	0.076544036676140	-0.0065641049929303
11.770000000000	0.075930759383138	-0.011116455999306
11.800000000000	0.074963156258031	-0.015609168220161
11.830000000000	0.073647032528258	-0.020009735087663
11.860000000000	0.071991511516023	-0.024286228325595
11.890000000000	0.070008975315209	-0.028407663964784
11.920000000000	0.067714962574583	-0.032344362044946
11.950000000000	0.065128024096266	-0.036068294726603
11.980000000000	0.062269537632984	-0.039553417622816
12.010000000000	0.059163483930764	-0.042775979335404
12.040000000000	0.055836186703298	-0.045714804442553
12.070000000000	0.052316019828584	-0.048351545530639
12.100000000000	0.048633085616301	-0.050670900288082
12.130000000000	0.044818868495462	-0.052660790176321
12.160000000000	0.040905868906283	-0.054312497754961
12.190000000000	0.036927222539845	-0.055620760355423
12.220000000000	0.032916310346555	-0.056583818459935
12.250000000000	0.028906364924058	-0.057203417839101
12.280000000000	0.024930078992942	-0.057484765219815
12.310000000000	0.021019221671714	-0.057436437983346
12.340000000000	0.017204268170386	-0.057070249118525
12.370000000000	0.013514048335443	-0.056401069364155
12.400000000000	0.0099754192006339	-0.055446609155758
12.430000000000	0.0066129663322986	-0.054227163632231
12.460000000000	0.0034487383106456	-0.052765324546695
12.490000000000	0.00050201816716271	-0.051085663452073
12.520000000000	-0.0022108649882010	-0.049214390986413
12.550000000000	-0.0046766815580936	-0.047178997457381
12.580000000000	-0.0068854023608012	-0.045007880212953
12.610000000000	-0.0088302536569481	-0.042729963480972
12.640000000000	-0.010507725849063	-0.040374316460269
12.670000000000	-0.011917536147509	-0.037969775448664
12.700000000000	-0.013062546234267	-0.035544575698333
12.730000000000	-0.013948636674735	-0.033125998498416
12.760000000000	-0.014584540514647	-0.030740038701725
12.790000000000	-0.014981639142124	-0.028411097542219
12.820000000000	-0.015153724082837	-0.026161705139088
12.850000000000	-0.015116728918809	-0.024012276560060
12.880000000000	-0.014888435969676	-0.021980904730370
12.910000000000	-0.014488162741526	-0.020083192835092
12.940000000000	-0.013936433426652	-0.018332128183038
12.970000000000	-0.013254640923118	-0.016737998792054
13.000000000000	-0.012464704933179	-0.015308353231207
13.030000000000	-0.011588731693169	-0.014048003527882
13.060000000000	-0.010648680785243	-0.012959070230173
13.090000000000	-0.0096660442856423	-0.012041068019888
13.120000000000	-0.0086615432192238	-0.011291029611121
13.150000000000	-0.0076548459213838	-0.010703665055433
13.180000000000	-0.0066643124636447	-0.010271553017564
13.210000000000	-0.0057067687864882	-0.0099853600950898
13.240000000000	-0.0047973136123341	-0.0098340838395719
13.270000000000	-0.0039491605936743	-0.0098053148024895
13.300000000000	-0.0031735174978139	-0.0098855126818061
13.330000000000	-0.0024795035525483	-0.010060291488100
13.360000000000	-0.0018741053889969	-0.010314708584703
13.390000000000	-0.0013621713312031	-0.010633552484532
13.420000000000	-0.00094644310952809	-0.011001624405738
13.450000000000	-0.00062762342838827	-0.011404008795854
13.480000000000	-0.00040447721003312	-0.011826328324969
13.510000000000	-0.00027396377554426	-0.012254979216449
13.540000000000	-0.00023139672178743	-0.012677343221109
13.570000000000	-0.00027062781722015	-0.013081973038810
13.600000000000	-0.00038425087749613	-0.013458748540156
13.630000000000	-0.00056382129947737	-0.013799001729786
13.660000000000	-0.00080008673382077	-0.014095609010005
13.690000000000	-0.0010832242644231	-0.014343049937724
13.720000000000	-0.0014030794385832	-0.014537432306571
13.750000000000	-0.0017494025542115	-0.014676484017861
13.780000000000	-0.0021120777574119	-0.014759512817048
13.810000000000	-0.0024813407314950	-0.014787335555172
13.840000000000	-0.0028479810615413	-0.014762179177061
13.870000000000	-0.0032035257304399	-0.014687556130119
13.900000000000	-0.0035404006347991	-0.014568117320708
13.930000000000	-0.0038520674934928	-0.014409486112120
13.960000000000	-0.0041331340477928	-0.014218077152910
13.990000000000	-0.0043794360096909	-0.014000904042187
14.020000000000	-0.0045880897930000	-0.013765379976521
14.050000000000	-0.0047575156489468	-0.013519115579540
14.080000000000	-0.0048874314128873	-0.013269718090466
14.110000000000	-0.0049788176403540	-0.013024595983106
14.140000000000	-0.0050338554581919	-0.012790772905409
14.170000000000	-0.0050558389698239	-0.012574714576117
14.200000000000	-0.0050490645234360	-0.012382171955188
14.230000000000	-0.0050186995695860	-0.012218043625497
14.260000000000	-0.0049706341931476	-0.012086259893115
14.290000000000	-0.0049113186975362	-0.011989690641040
14.320000000000	-0.0048475908420163	-0.011930078466453
14.350000000000	-0.0047864964823113	-0.011907998104478
14.380000000000	-0.0047351074387779	-0.011922842602651
14.410000000000	-0.0047003404147313	-0.011972836170285
14.440000000000	-0.0046887807111519	-0.012055073096338
14.470000000000	-0.0047065143355065	-0.012165581618210
14.500000000000	-0.0047589718856376	-0.012299411141917
14.530000000000	-0.0048507873097593	-0.012450740770208
14.560000000000	-0.0049856743068902	-0.012613006697552
14.590000000000	-0.0051663227458323	-0.012779045686579
14.620000000000	-0.0053943170533228	-0.012941251555552
14.650000000000	-0.0056700780621151	-0.013091741385509
14.680000000000	-0.0059928293268899	-0.013222528002189
14.710000000000	-0.0063605884198176	-0.013325695203954
14.740000000000	-0.0067701832181448	-0.013393572193224
14.770000000000	-0.0072172927031385	-0.013418903724763
14.800000000000	-0.0076965113126909	-0.013395012607531
14.830000000000	-0.0082014354379037	-0.013315951384255
14.860000000000	-0.0087247702355837	-0.013176640259994
14.890000000000	-0.0092584545514645	-0.012972988652000
14.920000000000	-0.0097938014199452	-0.012701998081465
14.950000000000	-0.010321651331001	-0.012361844515918
14.980000000000	-0.010832535238217	-0.011951938690853
15.010000000000	-0.011316844127162	-0.011472963381927
15.040000000000	-0.011765001872585	-0.010926887055922
15.070000000000	-0.012167638087137	-0.010316953790248
15.100000000000	-0.012515757703013	-0.0096476498081985
15.130000000000	-0.012800904129368	-0.0089246474213083
15.160000000000	-0.013015312989750	-0.0081547275927114
15.190000000000	-0.013152053660938	-0.0073456827282249
15.220000000000	-0.013205156102520	-0.0065062016578073
15.250000000000	-0.013169720779118	-0.0056457390826171
15.280000000000	-0.013042009827720	-0.0047743720266370
15.310000000000	-0.012819518003407	-0.0039026460423073
15.340000000000	-0.012501022340176	-0.0030414140735434
15.370000000000	-0.012086609881016	-0.0022016709747213
15.400000000000	-0.011577683254630	-0.0013943867198264
15.430000000000	-0.010976944296637	-0.00063034131217901
15.460000000000	-0.010288356322670	8.0035676531064e-05
15.490000000000	-0.0095170860513568	0.00072681814620041
15.520000000000	-0.0086694265396044	0.0013007264842764
15.550000000000	-0.0077527028239386	0.0017932581905631
15.580000000000	-0.0067751622539962	0.0021968040210852
15.610000000000	-0.0057458517525014	0.0025047478740003
15.640000000000	-0.0046744844360150	0.0027115489817987
15.670000000000	-0.0035712981793571	0.0028128053365396
15.700000000000	-0.0024469088018314	0.0028052976509463
15.730000000000	-0.0013121605943448	0.0026870135401240
15.760000000000	-0.00017797689337056	0.0024571519887063
15.790000000000	0.00094478665814935	0.0021161085387905
15.820000000000	0.0020454836392100	0.0016654419878603
15.850000000000	0.0031138108080800	0.0011078237162230
15.880000000000	0.0041399323344515	0.00044697106406752
15.910000000000	0.0051145923963518	-0.00031243355628005
15.940000000000	0.0060292145079078	-0.0011648359017914
15.970000000000	0.0068759862460416	-0.0021039134007420
16.000000000000	0.0076479283652290	-0.0031226866865988
16.030000000000	0.0083389476227000	-0.0042136368477197
16.060000000000	0.0089438729746847	-0.0053688260383358
16.090000000000	0.0094584751405531	-0.0065800191065204
16.120000000000	0.0098794698589614	-0.0078388039524970
16.150000000000	0.010204505471861	-0.0091367084333920
16.180000000000	0.010432135762305	-0.010465311775373
16.210000000000	0.010561779234763	-0.011816348636900
16.240000000000	0.010593666257314	-0.013181804183031
16.270000000000	0.010528775679416	-0.014553998774867
16.300000000000	0.010368762693709	-0.015925661144651
16.330000000000	0.010115879823072	-0.017289989209416
16.360000000000	0.0097728929835159	-0.018640697968120
16.390000000000	0.0093429945989480	-0.019972054222326
16.420000000000	0.0088297157258102	-0.021278898152290
16.450000000000	0.0082368390855531	-0.022556652062489
16.480000000000	0.0075683148030392	-0.023801316877272
16.510000000000	0.0068281805124718	-0.025009457212918
16.540000000000	0.0060204873230861	-0.026178176071949
16.570000000000	0.0051492329391730	-0.027305080394895
16.600000000000	0.0042183030080817	-0.028388238860156
16.630000000000	0.0032314215311094	-0.029426133441506
16.660000000000	0.0021921109214622	-0.030417606313215
16.690000000000	0.0011036620367005	-0.031361803733697
16.720000000000	-3.0885743746170e-05	-0.032258118539976
16.750000000000	-0.0012087545763418	-0.033106132847826
16.780000000000	-0.0024274287662399	-0.033905562477909
16.810000000000	-0.0036846465773375	-0.034656204518940
16.840000000000	-0.0049783840825027	-0.035357889298243
16.870000000000	-0.0063068320714464	-0.036010437861734
16.900000000000	-0.0076683671784760	-0.036613625874007
16.930000000000	-0.0090615185043664	-0.037167154639623
16.960000000000	-0.010484931083681	-0.037670629724278
16.990000000000	-0.011937327589734	-0.038123547424838
17.020000000000	-0.013417469673509	-0.038525289105815
17.050000000000	-0.014924120300638	-0.038875123192471
17.080000000000	-0.016456008383193	-0.039172214392826
17.110000000000	-0.018011796902629	-0.039415639517661
17.140000000000	-0.019590055589409	-0.039604409083956
17.170000000000	-0.021189239067326	-0.039737493727532
17.200000000000	-0.022807671190149	-0.039813854318661
17.230000000000	-0.024443536099775	-0.039832474573248
17.260000000000	-0.026094876323468	-0.039792394884197
17.290000000000	-0.027759598008327	-0.039692746064371
17.320000000000	-0.029435483169372	-0.039532781694861
17.350000000000	-0.031120208609044	-0.039311907810074
17.380000000000	-0.032811370955938	-0.039029708723437
17.410000000000	-0.034506517074558	-0.038685967902683
17.440000000000	-0.036203178920583	-0.038280682939098
17.470000000000	-0.037898911762192	-0.037814073817661
17.500000000000	-0.039591334561320	-0.037286583880761
17.530000000000	-0.041278171212650	-0.036698873082743
17.560000000000	-0.042957291275340	-0.036051803350973
17.590000000000	-0.044626748804766	-0.035346416096245
17.620000000000	-0.046284817900113	-0.034583902145631
17.650000000000	-0.047930023628528	-0.033765564598780
17.680000000000	-0.049561167067289	-0.032892775328532
17.710000000000	-0.051177343320549	-0.031966926053172
17.740000000000	-0.052777951514369	-0.030989375095451
17.770000000000	-0.054362695950024	-0.029961391107919
17.800000000000	-0.055931577797174	-0.028884095180712
17.830000000000	-0.057484876931110	-0.027758402853098
17.860000000000	-0.059023123757046	-0.026584967620708
17.890000000000	-0.060547061114024	-0.025364127564111
17.920000000000	-0.062057596605811	-0.024095856719795
17.950000000000	-0.063555745960403	-0.022779722770985
17.980000000000	-0.065042568267538	-0.021414852553305
18.010000000000	-0.066519094179139	-0.019999906750090
18.040000000000	-0.067986248375209	-0.018533064996211
18.070000000000	-0.069444767792231	-0.017012022420237
18.100000000000	-0.070895117277391	-0.015433998436225
18.130000000000	-0.072337404466057	-0.013795758352608
18.160000000000	-0.073771295777763	-0.012093648101365
18.190000000000	-0.075195935484898	-0.010323642111378
18.220000000000	-0.076609869825924	-0.0084814040611580
18.250000000000	-0.078010978110164	-0.0065623599543895
18.280000000000	-0.079396412693451	-0.0045617826728194
18.310000000000	-0.080762549593792	-0.0024748868815841
18.340000000000	-0.082104951365083	-0.00029693289793430
18.370000000000	-0.083418343657063	0.0019766621082429
18.400000000000	-0.084696606664384	0.0043502074293607
18.430000000000	-0.085932782410755	0.0068276186812633
18.460000000000	-0.087119098530318	0.0094122963881183
18.490000000000	-0.088247008903097	0.012107005575044
18.520000000000	-0.089307251180286	0.014913758715254
18.550000000000	-0.090289920904711	0.017833704395684
18.580000000000	-0.091184561598375	0.020867024035216
18.610000000000	-0.091980269859576	0.024012838912362
18.640000000000	-0.092665814193152	0.027269129635519
18.670000000000	-0.093229765995754	0.030632670019747
18.700000000000	-0.093660640839972	0.034098977122550
18.730000000000	-0.093947047952749	0.037662278940350
18.760000000000	-0.094077845570134	0.041315500981716
18.790000000000	-0.094042299677024	0.045050272617957
18.820000000000	-0.093830243511241	0.048856953772068
18.850000000000	-0.093432235129300	0.052724682149512
18.880000000000	-0.092839710299082	0.056641440845701
18.910000000000	-0.092045128003568	0.060594145792168
18.940000000000	-0.091042105910470	0.064568752133743
18.970000000000	-0.089825543284326	0.068550378269474
19.000000000000	-0.088391728988719	0.072523445947971
19.030000000000	-0.086738432444453	0.076471834489937
19.060000000000	-0.084864975670812	0.080379046923506
19.090000000000	-0.082772284837370	0.084228385567378
19.120000000000	-0.080462920087812	0.088003134388182
19.150000000000	-0.077941082758840	0.091686745296200
19.180000000000	-0.075212599500095	0.095263025431488
19.210000000000	-0.072284883197885	0.098716322433105
19.240000000000	-0.069166871009176	0.10203170467943
19.270000000000	-0.065868940214934	0.10519513353795
19.300000000000	-0.062402802996215	0.10819362476821
19.330000000000	-0.058781381614360	0.11101539638036
19.360000000000	-0.055018665831478	0.11365000046129
19.390000000000	-0.051129554731734	0.11608843673740
19.420000000000	-0.047129685391639	0.11832324594280
19.450000000000	-0.043035251092825	0.12034858139976
19.480000000000	-0.038862811968598	0.12216025758696
19.510000000000	-0.034629101121960	0.12375577486537
19.540000000000	-0.030350829344544	0.12513431994319
19.570000000000	-0.026044491600925	0.12629674208264
19.600000000000	-0.021726178420223	0.12724550547523
19.630000000000	-0.017411395256527	0.12798461862967
19.660000000000	-0.013114892743064	0.12851954202029
19.690000000000	-0.0088505105741569	0.12885707562641
19.720000000000	-0.0046310375074699	0.12900522834614
19.750000000000	-0.00046808969086050	0.12897307158625
19.780000000000	0.0036279908109189	0.12877057960529
19.810000000000	0.0076482157789434	0.12840845941595
19.840000000000	0.011585007774097	0.12789797322989
19.870000000000	0.015432233537899	0.12725075654952
19.900000000000	0.019185213582441	0.12647863507559
19.930000000000	0.022840708123825	0.12559344360441
19.960000000000	0.026396879942020	0.12460685003368
19.990000000000	0.029853235167728	0.12353018748362
20.020000000000	0.033210543394869	0.12237429737052
20.050000000000	0.036470738888539	0.12114938604726
20.080000000000	0.039636804995302	0.11986489735421
20.110000000000	0.042712644159039	0.11852940310777
20.140000000000	0.045702936195599	0.11715051320101
20.170000000000	0.048612987678075	0.11573480660560
20.200000000000	0.051448575428040	0.11428778415636
20.230000000000	0.054215787193466	0.11281384357506
20.260000000000	0.056920862619758	0.11131627675825
20.290000000000	0.059570037585619	0.10979728892263
20.320000000000	0.062169394881158	0.10825803877900
20.350000000000	0.064724724053373	0.10669869850135
20.380000000000	0.067241393036801	0.10511853187738
20.410000000000	0.069724233928904	0.10351598868069
20.440000000000	0.072177444965371	0.10188881299655
20.470000000000	0.074604510406214	0.10023416297241
20.500000000000	0.077008139665739	0.098548739252833
20.530000000000	0.079390226615831	0.096828919203178
20.560000000000	0.081751829570284	0.095070893928916
20.590000000000	0.084093172026525	0.093270805060276
20.620000000000	0.086413663808534	0.091424878296051
20.650000000000	0.088711941829624	0.089529550785280
20.680000000000	0.090985929284580	0.087581589569692
20.710000000000	0.093232911695465	0.085578198510498
20.740000000000	0.095449627882169	0.083517111376660
20.770000000000	0.097632373614456	0.081396669072923
20.800000000000	0.099777115433407	0.079215879329274
20.830000000000	0.10187961191218	0.076974457551892
20.860000000000	0.10393553946361	0.074672847942078
20.890000000000	0.10594061969878	0.072312224415725
20.920000000000	0.10789074529847	0.069894471293408
