#Parameters = {CPWG_cut=1.25; GND_len=30; GND_wid=5; Strip_wid=0.85; arr1_posx=10; clrGND=5; couplline_len1=0; couplline_len2=2; couplline_len3=1; couplline_pos=1.5; dip_len=3; dip_pos=3; dip_wid=0.4; dipext_len=2; feed_pos=0.3; gap=0.2; notch_len=2; patch_wid=2.6; sub_h=0.5; via_num=10}
#"Frequency / GHz"	"R1_5_6 [1] [Re]"	"R1_5_6 [1] [Im]"
#-----------------------------------------------------
10.000000000000	-0.0085167890943202	0.012791120693770
10.030000000000	-0.0087245022825298	0.013277557249137
10.060000000000	-0.0089369569870832	0.013812986117080
10.090000000000	-0.0091501292176892	0.014404530504820
10.120000000000	-0.0093579869230245	0.015059144938613
10.150000000000	-0.0095524801310946	0.015783090505742
10.180000000000	-0.0097236695379983	0.016581410334615
10.210000000000	-0.0098599910825529	0.017457441939417
10.240000000000	-0.0099486444446582	0.018412401585397
10.270000000000	-0.0099760844356155	0.019445071885674
10.300000000000	-0.0099285865338635	0.020551617653814
10.330000000000	-0.0097928519048984	0.021725546995635
10.360000000000	-0.0095566135589904	0.022957825244153
10.390000000000	-0.0092092041288254	0.024237139233453
10.420000000000	-0.0087420472112384	0.025550299235017
10.450000000000	-0.0081490382598541	0.026882756319014
10.480000000000	-0.0074267874156265	0.028219204595483
10.510000000000	-0.0065747050409187	0.029544231303332
10.540000000000	-0.0055949205683942	0.030842973503709
10.570000000000	-0.0044920359772801	0.032101738512104
10.600000000000	-0.0032727260937239	0.033308546321799
10.630000000000	-0.0019452082872567	0.034453556108874
10.660000000000	-0.00051861333451800	0.035529345273141
10.690000000000	0.00099770335667302	0.036531018006751
10.720000000000	0.0025948658222400	0.037456130600735
10.750000000000	0.0042651500642853	0.038304431997733
10.780000000000	0.0060025785001829	0.039077429802559
10.810000000000	0.0078033930238080	0.039777803364569
10.840000000000	0.0096663693074384	0.040408695951456
10.870000000000	0.011592943348181	0.040972926799313
10.900000000000	0.013587131618232	0.041472170396055
10.930000000000	0.015655237940107	0.041906154305157
10.960000000000	0.017805352714508	0.042271927884384
10.990000000000	0.020046662667975	0.042563252285590
11.020000000000	0.022388601140059	0.042770157195355
11.050000000000	0.024839879407581	0.042878702120745
11.080000000000	0.027407448031581	0.042870970025085
11.110000000000	0.030095443202062	0.042725309296042
11.140000000000	0.032904176174194	0.042416827009125
11.170000000000	0.035829223921008	0.041918122931815
11.200000000000	0.038860676024688	0.041200240426832
11.230000000000	0.041982586715110	0.040233798079548
11.260000000000	0.045172672128733	0.038990255168466
11.290000000000	0.048402281739978	0.037443255608816
11.320000000000	0.051636660072232	0.035569989201006
11.350000000000	0.054835500881760	0.033352506239738
11.380000000000	0.057953781739159	0.030778921958501
11.410000000000	0.060942853043714	0.027844450902574
11.440000000000	0.063751742711569	0.024552217978417
11.470000000000	0.066328626738004	0.020913802297036
11.500000000000	0.068622407114988	0.016949481551049
11.530000000000	0.070584332635128	0.012688157961652
11.560000000000	0.072169595236132	0.0081669611390451
11.590000000000	0.073338834881869	0.0034305378047713
11.620000000000	0.074059489518035	-0.0014699474991812
11.650000000000	0.074306933200207	-0.0064780635426256
11.680000000000	0.074065354735842	-0.011533566931032
11.710000000000	0.073328340641240	-0.016574002608556
11.740000000000	0.072099139313325	-0.021536386705159
11.770000000000	0.070390597399597	-0.026358904893145
11.800000000000	0.068224773719898	-0.030982559369658
11.830000000000	0.065632250045356	-0.035352700651386
11.860000000000	0.062651170897186	-0.039420386366764
11.890000000000	0.059326055678406	-0.043143517824726
11.920000000000	0.055706435377198	-0.046487715866947
11.950000000000	0.051845372383563	-0.049426909810404
11.980000000000	0.047797925382081	-0.051943626526778
12.010000000000	0.043619621714390	-0.054028980215025
12.040000000000	0.039364997090577	-0.055682376532448
12.070000000000	0.035086257263484	-0.056910956819785
12.100000000000	0.030832108594824	-0.057728818615211
12.130000000000	0.026646794785028	-0.058156057023683
12.160000000000	0.022569365949376	-0.058217677432531
12.190000000000	0.018633194301906	-0.057942433317626
12.220000000000	0.014865738585306	-0.057361643386921
12.250000000000	0.011288547682909	-0.056508040125369
12.280000000000	0.0079174831530986	-0.055414697142250
12.310000000000	0.0047631312524570	-0.054114075908621
12.340000000000	0.0018313677816454	-0.052637223944124
12.370000000000	-0.00087596589874955	-0.051013146781778
12.400000000000	-0.0033603199029417	-0.049268365669481
12.430000000000	-0.0056256702372547	-0.047426662536553
12.460000000000	-0.0076777726852585	-0.045509003826674
12.490000000000	-0.0095234738652088	-0.043533625892139
12.520000000000	-0.011170110984157	-0.041516257201498
12.550000000000	-0.012625024256959	-0.039470446979428
12.580000000000	-0.013895197511850	-0.037407966306032
12.610000000000	-0.014987033685553	-0.035339246260716
12.640000000000	-0.015906263240697	-0.033273818384530
12.670000000000	-0.016657975509085	-0.031220725413876
12.700000000000	-0.017246756012770	-0.029188874657011
12.730000000000	-0.017676907298055	-0.027187312199997
12.760000000000	-0.017952726994006	-0.025225402928773
12.790000000000	-0.018078814824963	-0.023312908684677
12.820000000000	-0.018060380197862	-0.021459964263499
12.850000000000	-0.017903523667757	-0.019676957969750
12.880000000000	-0.017615468871014	-0.017974329636143
12.910000000000	-0.017204726126708	-0.016362304067092
12.940000000000	-0.016681174493858	-0.014850581502549
12.970000000000	-0.016056055239452	-0.013448008760918
13.000000000000	-0.015341876003550	-0.012162255148362
13.030000000000	-0.014552231033189	-0.010999516062758
13.060000000000	-0.013701548318224	-0.0099642646188288
13.090000000000	-0.012804778976391	-0.0090590678074956
13.120000000000	-0.011877047552103	-0.0082844789767599
13.150000000000	-0.010933283851027	-0.0076390131295925
13.180000000000	-0.0099878574624658	-0.0071192060455418
13.210000000000	-0.0090542352514655	-0.0067197529142637
13.240000000000	-0.0081446799507678	-0.0064337173622630
13.270000000000	-0.0072700047471618	-0.0062527977528165
13.300000000000	-0.0064393946991435	-0.0061676346721398
13.330000000000	-0.0056603012490429	-0.0061681417330733
13.360000000000	-0.0049384113309520	-0.0062438412962288
13.390000000000	-0.0042776879532940	-0.0063841874061318
13.420000000000	-0.0036804749563133	-0.0065788600626307
13.450000000000	-0.0031476551720137	-0.0068180177195735
13.480000000000	-0.0026788486499649	-0.0070924983896590
13.510000000000	-0.0022726360887095	-0.0073939636629330
13.540000000000	-0.0019267921835513	-0.0077149840239130
13.570000000000	-0.0016385142428788	-0.0080490677877440
13.600000000000	-0.0014046330383972	-0.0083906395001736
13.630000000000	-0.0012217952765559	-0.0087349765307083
13.660000000000	-0.0010866100950791	-0.0090781146593051
13.690000000000	-0.00099575535202393	-0.0094167346060687
13.720000000000	-0.00094604292239382	-0.0097480416432758
13.750000000000	-0.00093444549069703	-0.010069649693609
13.780000000000	-0.00095809019162172	-0.010379479758027
13.810000000000	-0.0010142267092670	-0.010675680288586
13.840000000000	-0.0011001789545454	-0.010956574426538
13.870000000000	-0.0012132901183004	-0.011220636092591
13.900000000000	-0.0013508707276161	-0.011466493982298
13.930000000000	-0.0015101583627817	-0.011692959815027
13.960000000000	-0.0016882960297475	-0.011899074914480
13.990000000000	-0.0018823339844741	-0.012084167527279
14.020000000000	-0.0020892572646261	-0.012247912327675
14.050000000000	-0.0023060385146009	-0.012390383366515
14.080000000000	-0.0025297131101086	-0.012512092296082
14.110000000000	-0.0027574713040276	-0.012614004974841
14.140000000000	-0.0029867603037358	-0.012697531410504
14.170000000000	-0.0032153879884716	-0.012764486276408
14.200000000000	-0.0034416194700645	-0.012817019746039
14.230000000000	-0.0036642579222002	-0.012857520929956
14.260000000000	-0.0038827020258569	-0.012888498566666
14.290000000000	-0.0040969739212185	-0.012912445629081
14.320000000000	-0.0043077135921925	-0.012931696006998
14.350000000000	-0.0045161379753765	-0.012948282301685
14.380000000000	-0.0047239655948681	-0.012963803958943
14.410000000000	-0.0049333099833943	-0.012979314463968
14.440000000000	-0.0051465473714835	-0.012995235170120
14.470000000000	-0.0053661659436267	-0.013011301628939
14.500000000000	-0.0055946052410888	-0.013026546165874
14.530000000000	-0.0058340949459819	-0.013039318070652
14.560000000000	-0.0060865022706775	-0.013047340325056
14.590000000000	-0.0063531965125670	-0.013047799458484
14.620000000000	-0.0066349380785023	-0.013037463075401
14.650000000000	-0.0069317975422039	-0.013012817985924
14.680000000000	-0.0072431082131175	-0.012970220802396
14.710000000000	-0.0075674534319981	-0.012906052407792
14.740000000000	-0.0079026875427835	-0.012816867874340
14.770000000000	-0.0082459873945236	-0.012699534181718
14.800000000000	-0.0085939294567800	-0.012551349376281
14.830000000000	-0.0089425863137356	-0.012370138509489
14.860000000000	-0.0092876355244409	-0.012154323648858
14.890000000000	-0.0096244736426080	-0.011902967304839
14.920000000000	-0.0099483285748297	-0.011615790594148
14.950000000000	-0.010254364370048	-0.011293169205603
14.980000000000	-0.010537773882523	-0.010936111611762
15.010000000000	-0.010793856408288	-0.010546224874211
15.040000000000	-0.011018079210655	-0.010125673758888
15.070000000000	-0.011206123662007	-0.0096771386920715
15.100000000000	-0.011353918377565	-0.0092037773762118
15.130000000000	-0.011457663057643	-0.0087091937201886
15.160000000000	-0.011513847670713	-0.0081974162311167
15.190000000000	-0.011519272019408	-0.0076728863038546
15.220000000000	-0.011471070597333	-0.0071404550863606
15.250000000000	-0.011366746974566	-0.0066053859551669
15.280000000000	-0.011204220797753	-0.0060733582580763
15.310000000000	-0.010981888952265	-0.0055504670021193
15.340000000000	-0.010698700638264	-0.0050432126833298
15.370000000000	-0.010354244212879	-0.0045584755301013
15.400000000000	-0.0099488418117315	-0.0041034690773334
15.430000000000	-0.0094836461477852	-0.0036856691707385
15.460000000000	-0.0089607326423128	-0.0033127161408965
15.490000000000	-0.0083831792931179	-0.0029922898669936
15.520000000000	-0.0077551265136672	-0.0027319596221639
15.550000000000	-0.0070818096239638	-0.0025390127882327
15.580000000000	-0.0063695577322652	-0.0024202685733881
15.610000000000	-0.0056257543604885	-0.0023818845950002
15.640000000000	-0.0048587572349761	-0.0024291654548090
15.670000000000	-0.0040777770503829	-0.0025663831203268
15.700000000000	-0.0032927175523538	-0.0027966189609579
15.730000000000	-0.0025139817935264	-0.0031216366440134
15.760000000000	-0.0017522517146080	-0.0035417937983867
15.790000000000	-0.0010182501169647	-0.0040559984752535
15.820000000000	-0.00032249547939914	-0.0046617140927746
15.850000000000	0.00032493918036685	-0.0053550138985484
15.880000000000	0.00091465215490413	-0.0061306831974292
15.910000000000	0.0014381130374706	-0.0069823648633851
15.940000000000	0.0018878276424339	-0.0079027411704588
15.970000000000	0.0022574606009335	-0.0088837429121452
16.000000000000	0.0025419108030372	-0.0099167752746604
16.030000000000	0.0027373375907070	-0.010992949092659
16.060000000000	0.0028411384611676	-0.012103306004051
16.090000000000	0.0028518818237165	-0.013239026640629
16.120000000000	0.0027692008759321	-0.014391612298232
16.150000000000	0.0025936567574906	-0.015553032430953
16.180000000000	0.0023265806625541	-0.016715832673081
16.210000000000	0.0019699054471274	-0.017873200743504
16.240000000000	0.0015259974061872	-0.019018990343614
16.270000000000	0.00099749831849014	-0.020147705829158
16.300000000000	0.00038718661755580	-0.021254452834878
16.330000000000	-0.00030213525503100	-0.022334861995492
16.360000000000	-0.0010677224843539	-0.023384994308197
16.390000000000	-0.0019069361583979	-0.024401237433390
16.420000000000	-0.0028172583953836	-0.025380202293062
16.450000000000	-0.0037962769747553	-0.026318628712409
16.480000000000	-0.0048416442793625	-0.027213307620958
16.510000000000	-0.0059510170725390	-0.028061025590655
16.540000000000	-0.0071219847953956	-0.028858535381183
16.570000000000	-0.0083519946040492	-0.029602553853878
16.600000000000	-0.0096382812492387	-0.030289786283279
16.630000000000	-0.010977809156608	-0.030916973917090
16.660000000000	-0.012367232766589	-0.031480959773401
16.690000000000	-0.013802879450818	-0.031978766254468
16.720000000000	-0.015280757281763	-0.032407677298223
16.750000000000	-0.016796587758722	-0.032765317537311
16.780000000000	-0.018345861459138	-0.033049721298790
16.810000000000	-0.019923912656372	-0.033259385216064
16.840000000000	-0.021526007372537	-0.033393299654450
16.870000000000	-0.023147438236915	-0.033450955952401
16.900000000000	-0.024783618977835	-0.033432328503681
16.930000000000	-0.026430171425273	-0.033337832787790
16.960000000000	-0.028082998532777	-0.033168262429859
16.990000000000	-0.029738338085035	-0.032924710080255
17.020000000000	-0.031392793345002	-0.032608478213346
17.050000000000	-0.033043338782483	-0.032220986751928
17.080000000000	-0.034687301061826	-0.031763684666186
17.110000000000	-0.036322317486900	-0.031237972356197
17.140000000000	-0.037946275945125	-0.030645140732942
17.170000000000	-0.039557241912100	-0.029986331536215
17.200000000000	-0.041153379153028	-0.029262521677991
17.230000000000	-0.042732871300400	-0.028474532415174
17.260000000000	-0.044293851454742	-0.027623062092805
17.290000000000	-0.045834346347034	-0.026708739220636
17.320000000000	-0.047352240463068	-0.025732190908546
17.350000000000	-0.048845263947915	-0.024694120327512
17.380000000000	-0.050311006204133	-0.023595385990856
17.410000000000	-0.051746955016390	-0.022437075336612
17.440000000000	-0.053150558938165	-0.021220565363836
17.470000000000	-0.054519308724439	-0.019947563916677
17.500000000000	-0.055850831938915	-0.018620126559375
17.530000000000	-0.057142993633453	-0.017240645743364
17.560000000000	-0.058393995287348	-0.015811811003481
17.590000000000	-0.059602464061555	-0.014336541081657
17.620000000000	-0.060767524880923	-0.012817891001684
17.650000000000	-0.061888848874292	-0.011258939048526
17.680000000000	-0.062966673204181	-0.0096626601959954
17.710000000000	-0.064001789194600	-0.0080317936587903
17.740000000000	-0.064995497779138	-0.0063687128350133
17.770000000000	-0.065949533486515	-0.0046753059102943
17.800000000000	-0.066865960296291	-0.0029528748153085
17.830000000000	-0.067747044579149	-0.0012020591094921
17.860000000000	-0.068595111848322	0.00057721021040703
17.890000000000	-0.069412395083794	0.0023857238895117
17.920000000000	-0.070200882878319	0.0042249736003046
17.950000000000	-0.070962175564441	0.0060970982981406
17.980000000000	-0.071697356829185	0.0080048009378455
18.010000000000	-0.072406887163948	0.0099512405054045
18.040000000000	-0.073090523925397	0.011939905692616
18.070000000000	-0.073747270922416	0.013974477433231
18.100000000000	-0.074375358438368	0.016058687870566
18.130000000000	-0.074972252600288	0.018196183124481
18.160000000000	-0.075534691166926	0.020390396497982
18.190000000000	-0.076058741262165	0.022644437578748
18.220000000000	-0.076539873439795	0.024961001150572
18.250000000000	-0.076973045808668	0.027342298062598
18.280000000000	-0.077352791812643	0.029790008354162
18.310000000000	-0.077673305645698	0.032305255148607
18.340000000000	-0.077928520145831	0.034888596251973
18.370000000000	-0.078112173271491	0.037540029144993
18.400000000000	-0.078217860810597	0.040259004234917
18.430000000000	-0.078239074671685	0.043044440897591
18.460000000000	-0.078169227816155	0.045894741011082
18.490000000000	-0.078001668466215	0.048807795339672
18.520000000000	-0.077729687533606	0.051780979212403
18.550000000000	-0.077346524149746	0.054811135359843
18.580000000000	-0.076845374659705	0.057894543406554
18.610000000000	-0.076219410428245	0.061026877227370
18.640000000000	-0.075461809293898	0.064203153019750
18.670000000000	-0.074565804534913	0.067417672383953
18.700000000000	-0.073524753853908	0.070663965815334
18.730000000000	-0.072332229252648	0.073934742702500
18.760000000000	-0.070982126883460	0.077221854128452
18.790000000000	-0.069468794170955	0.080516274464646
18.820000000000	-0.067787169839937	0.083808106946036
18.850000000000	-0.065932931095570	0.087086617173501
18.880000000000	-0.063902641192702	0.090340296898615
18.910000000000	-0.061693890086266	0.093556958621980
18.940000000000	-0.059305420821242	0.096723859616703
18.970000000000	-0.056737234807019	0.099827852117332
19.000000000000	-0.053990670094725	0.10285555473238
19.030000000000	-0.051068448167421	0.10579353877224
19.060000000000	-0.047974686459577	0.10862852223587
19.090000000000	-0.044714875717722	0.11134756373896
19.120000000000	-0.041295823257601	0.11393824872594
19.150000000000	-0.037725565020713	0.11638886087969
19.180000000000	-0.034013250948510	0.11868853267884
19.210000000000	-0.030169009458735	0.12082737046946
19.240000000000	-0.026203797635747	0.12279655110367
19.270000000000	-0.022129244081126	0.12458838901870
19.300000000000	-0.017957491196896	0.12619637444472
19.330000000000	-0.013701043016828	0.12761518509672
19.360000000000	-0.0093726236249719	0.12884067509761
19.390000000000	-0.0049850498015791	0.12986984589120
19.420000000000	-0.00055111993746548	0.13070080446235
19.450000000000	0.0039164804036169	0.13133271425051
19.480000000000	0.0084052574760816	0.13176574372832
19.510000000000	0.012902975463814	0.13200101676225
19.540000000000	0.017397713310209	0.13204056766109
19.570000000000	0.021877916474289	0.13188730236040
19.600000000000	0.026332447951422	0.13154496562291
19.630000000000	0.030750642536812	0.13101811259819
19.660000000000	0.035122367485261	0.13031208172519
19.690000000000	0.039438091499630	0.12943296490761
19.720000000000	0.043688962465721	0.12838757025264
19.750000000000	0.047866892673274	0.12718337251206
19.780000000000	0.051964648569135	0.12582844673685
19.810000000000	0.055975940532866	0.12433138154282
19.840000000000	0.059895506893988	0.12270116973543
19.870000000000	0.063719185552140	0.12094707576373
19.900000000000	0.067443966216056	0.11907848144108
19.930000000000	0.071068016505668	0.11710471343313
19.960000000000	0.074590675981682	0.11503485800742
19.990000000000	0.078012413550077	0.11287757029745
20.020000000000	0.081334745561152	0.11064088670493
20.050000000000	0.084560114169254	0.10833204991516
20.080000000000	0.087691727992088	0.10595735623876
20.110000000000	0.090733369636487	0.10352203456337
20.140000000000	0.093689177059069	0.10103016509803
20.170000000000	0.096563407826273	0.098484644363833
20.200000000000	0.099360196965823	0.095887200620061
20.230000000000	0.10208332012600	0.093238461247549
20.260000000000	0.10473597408434	0.090538070708168
20.290000000000	0.10732058622458	0.087784854748553
20.320000000000	0.10983866343159	0.084977023714322
20.350000000000	0.11229068899301	0.082112405379209
20.380000000000	0.11467607364640	0.079188695743956
20.410000000000	0.11699316401731	0.076203714962646
20.440000000000	0.11923930853563	0.073155655007820
20.470000000000	0.12141097769385	0.070043305939434
20.500000000000	0.12350393242770	0.066866248691418
20.530000000000	0.12551343165556	0.063625004076184
20.560000000000	0.12743446778641	0.060321130123364
20.590000000000	0.12926201743994	0.056957262764518
20.620000000000	0.13099129381776	0.053537098067606
20.650000000000	0.13261798717119	0.050065317511519
20.680000000000	0.13413848062415	0.046547460963703
20.710000000000	0.13555003017161	0.042989754883715
20.740000000000	0.13685089987837	0.039398905645265
20.770000000000	0.13804044600073	0.035781869606434
20.800000000000	0.13911914676534	0.032145612563621
20.830000000000	0.14008857766908	0.028496871450875
20.860000000000	0.14095133520837	0.024841930597199
20.890000000000	0.14171091471536	0.021186423586184
20.920000000000	0.14237155030336	0.017535169878259
