#Parameters = {CPWG_cut=1.25; GND_len=30; GND_wid=5; Strip_wid=0.85; arr1_posx=10; clrGND=5; couplline_len1=0; couplline_len2=2; couplline_len3=1; couplline_pos=1.5; dip_len=3; dip_pos=3; dip_wid=0.4; dipext_len=2; feed_pos=0.3; gap=0.2; notch_len=2; patch_wid=2.6; sub_h=0.5; via_num=10}
#"Frequency / GHz"	"R1_0_0 [1] [Re]"	"R1_0_0 [1] [Im]"
#-----------------------------------------------------
10.000000000000	0.012893473405085	0.015913586074328
10.030000000000	0.013750739300041	0.015773348725338
10.060000000000	0.014620185248230	0.015585844561329
10.090000000000	0.015499019266633	0.015350217390099
10.120000000000	0.016384652553667	0.015065695949341
10.150000000000	0.017274648447785	0.014731489734483
10.180000000000	0.018166638360369	0.014346712087038
10.210000000000	0.019058215085846	0.013910339662469
10.240000000000	0.019946816216784	0.013421213865470
10.270000000000	0.020829611591909	0.012878085759281
10.300000000000	0.021703408662042	0.012279701667486
10.330000000000	0.022564588356406	0.011624922556863
10.360000000000	0.023409081556859	0.010912866675419
10.390000000000	0.024232392826190	0.010143062141420
10.420000000000	0.025029673859274	0.0093155944945902
10.450000000000	0.025795844567364	0.0084312338026331
10.480000000000	0.026525755139514	0.0074915268378614
10.510000000000	0.027214378233826	0.0064988420656147
10.540000000000	0.027857016996807	0.0054563585771493
10.570000000000	0.028449512203468	0.0043679944161379
10.600000000000	0.028988430690347	0.0032382746703590
10.630000000000	0.029471217559137	0.0020721448517687
10.660000000000	0.029896296391856	0.00087474006295052
10.690000000000	0.030263104857970	-0.00034887515839265
10.720000000000	0.030572057417831	-0.0015939779840309
10.750000000000	0.030824432045848	-0.0028564489163047
10.780000000000	0.031022183643662	-0.0041330026767031
10.810000000000	0.031167692669042	-0.0054213680551914
10.840000000000	0.031263463029517	-0.0067203989125949
10.870000000000	0.031311788051418	-0.0080301025020734
10.900000000000	0.031314406948763	-0.0093515764882166
10.930000000000	0.031272176369155	-0.010686852158606
10.960000000000	0.031184782070164	-0.012038647931366
10.990000000000	0.031050514480068	-0.013410043903423
11.020000000000	0.030866128847167	-0.014804094382389
11.050000000000	0.030626806034839	-0.016223400642835
11.080000000000	0.030326224045673	-0.017669670139294
11.110000000000	0.029956743429236	-0.019143290769524
11.140000000000	0.029509702293137	-0.020642949294203
11.170000000000	0.028975809191264	-0.022165321589161
11.200000000000	0.028345615214214	-0.023704859071622
11.230000000000	0.027610040640200	-0.025253690573237
11.260000000000	0.026760926948388	-0.026801652422907
11.290000000000	0.025791582191689	-0.028336451948521
11.320000000000	0.024697286901304	-0.029843961484250
11.350000000000	0.023475728950589	-0.031308631800963
11.380000000000	0.022127339102839	-0.032714006195565
11.410000000000	0.020655504131963	-0.034043309790154
11.440000000000	0.019066641135736	-0.035280083354076
11.470000000000	0.017370124550663	-0.036408827531974
11.500000000000	0.015578065936967	-0.037415621984337
11.530000000000	0.013704955295036	-0.038288684737827
11.560000000000	0.011767180950908	-0.039018839974385
11.590000000000	0.0097824523816752	-0.039599867395480
11.620000000000	0.0077691562737683	-0.040028712887164
11.650000000000	0.0057456802388532	-0.040305548079584
11.680000000000	0.0037297406885317	-0.040433675055560
11.710000000000	0.0017377512563458	-0.040419281379690
11.740000000000	-0.00021573414045696	-0.040271059239571
11.770000000000	-0.0021184738417048	-0.039999710281696
11.800000000000	-0.0039608629303456	-0.039617364208411
11.830000000000	-0.0057361134891763	-0.039136943986756
11.860000000000	-0.0074402828510705	-0.038571513322152
11.890000000000	-0.0090721508563160	-0.037933642714522
11.920000000000	-0.010632955774347	-0.037234828921784
11.950000000000	-0.012126006518656	-0.036484999121415
11.980000000000	-0.013556195607053	-0.035692125726900
12.010000000000	-0.014929442597481	-0.034861971032912
12.040000000000	-0.016252101167995	-0.033997973066180
12.070000000000	-0.017530364433815	-0.033101275698616
12.100000000000	-0.018769702458728	-0.032170897748711
12.130000000000	-0.019974363305608	-0.031204027959278
12.160000000000	-0.021146964585313	-0.030196425855455
12.190000000000	-0.022288196613249	-0.029142902946541
12.220000000000	-0.023396651359788	-0.028037854835903
12.250000000000	-0.024468783831176	-0.026875812731711
12.280000000000	-0.025499004813643	-0.025651982676086
12.310000000000	-0.026479896522111	-0.024362742480388
12.340000000000	-0.027402536048072	-0.023006069706334
12.370000000000	-0.028256905969755	-0.021581878804847
12.400000000000	-0.029032367359809	-0.020092251377128
12.430000000000	-0.029718167891523	-0.018541550061935
12.460000000000	-0.030303956887989	-0.016936413359534
12.490000000000	-0.030780279955916	-0.015285635357581
12.520000000000	-0.031139028171860	-0.013599940436906
12.550000000000	-0.031373820429440	-0.011891668267083
12.580000000000	-0.031480302226045	-0.010174388485441
12.610000000000	-0.031456349531835	-0.0084624672066422
12.640000000000	-0.031302172081844	-0.0067706088434051
12.670000000000	-0.031020316102354	-0.0051133966367635
12.700000000000	-0.030615571786645	-0.0035048538891190
12.730000000000	-0.030094795477206	-0.0019580453357822
12.760000000000	-0.029466660256496	-0.00048473461333155
12.790000000000	-0.028741351333344	0.00090489033818170
12.820000000000	-0.027930224152727	0.0022024165691303
12.850000000000	-0.027045443547847	0.0034013272533370
12.880000000000	-0.026099621564565	0.0044970460818419
12.910000000000	-0.025105469953521	0.0054869101388075
12.940000000000	-0.024075480930437	0.0063700796082298
12.970000000000	-0.023021646870672	0.0071473949811896
13.000000000000	-0.021955226368343	0.0078211938795467
13.030000000000	-0.020886560790701	0.0083951001793935
13.060000000000	-0.019824942315573	0.0088737978625928
13.090000000000	-0.018778531642846	0.0092628010551380
13.120000000000	-0.017754321266904	0.0095682301743697
13.150000000000	-0.016758138483088	0.0097966021764247
13.180000000000	-0.015794681222187	0.0099546407546834
13.210000000000	-0.014867579356138	0.010049110169714
13.240000000000	-0.013979474242110	0.010086674354385
13.270000000000	-0.013132109879390	0.010073781169497
13.300000000000	-0.012326430024475	0.010016570284273
13.330000000000	-0.011562676808960	0.0099208021802652
13.360000000000	-0.010840487693259	0.0097918052425509
13.390000000000	-0.010158988836016	0.0096344377849251
13.420000000000	-0.0095168840519400	0.0094530620979394
13.450000000000	-0.0089125393839779	0.0092515281259685
13.480000000000	-0.0083440638752249	0.0090331650705594
13.510000000000	-0.0078093873721426	0.0088007799744603
13.540000000000	-0.0073063361369820	0.0085566630598104
13.570000000000	-0.0068327067372975	0.0083026001839159
13.600000000000	-0.0063863381812279	0.0080398931664598
13.630000000000	-0.0059651816619972	0.0077693888885453
13.660000000000	-0.0055673666543538	0.0074915179512784
13.690000000000	-0.0051912615579584	0.0072063433233593
13.720000000000	-0.0048355266864647	0.0069136188436120
13.750000000000	-0.0044991572169636	0.0066128567377173
13.780000000000	-0.0041815137804117	0.0063034025358977
13.810000000000	-0.0038823387013474	0.0059845150248948
13.840000000000	-0.0036017564693776	0.0056554482173033
13.870000000000	-0.0033402578051981	0.0053155318496740
13.900000000000	-0.0030986676085424	0.0049642466873952
13.930000000000	-0.0028780980672018	0.0046012909575580
13.960000000000	-0.0026798891793152	0.0042266345643496
13.990000000000	-0.0025055398089969	0.0038405583522375
14.020000000000	-0.0023566330784619	0.0034436765323804
14.050000000000	-0.0022347603326206	0.0030369414172258
14.080000000000	-0.0021414480490147	0.0026216307400086
14.110000000000	-0.0020780918853529	0.0021993189820899
14.140000000000	-0.0020459015631918	0.0017718352008285
14.170000000000	-0.0020458595099373	0.0013412107573662
14.200000000000	-0.0020786951763311	0.00090962101239056
14.230000000000	-0.0021448757864034	0.00047932543158461
14.260000000000	-0.0022446130485176	5.2610586731262e-05
14.290000000000	-0.0023778841532326	-0.00036825975542032
14.320000000000	-0.0025444642990448	-0.00078108387859565
14.350000000000	-0.0027439671051867	-0.0011837480104066
14.380000000000	-0.0029758886611625	-0.0015742372814715
14.410000000000	-0.0032396506747557	-0.0019506314028646
14.440000000000	-0.0035346382387431	-0.0023110859878672
14.470000000000	-0.0038602281401070	-0.0026538016601668
14.500000000000	-0.0042158043567259	-0.0029769841578957
14.530000000000	-0.0046007583739029	-0.0032787994804665
14.560000000000	-0.0050144731353363	-0.0035573286693613
14.590000000000	-0.0054562907344130	-0.0038105270229489
14.620000000000	-0.0059254652582951	-0.0040361924019934
14.650000000000	-0.0064211034246465	-0.0042319467955526
14.680000000000	-0.0069420967106803	-0.0043952345203052
14.710000000000	-0.0074870494908959	-0.0045233393759290
14.740000000000	-0.0080542082159535	-0.0046134218488346
14.770000000000	-0.0086413968451980	-0.0046625761321416
14.800000000000	-0.0092459635783223	-0.0046679054027593
14.830000000000	-0.0098647434311311	-0.0046266125570342
14.860000000000	-0.010494040403014	-0.0045361025371638
14.890000000000	-0.011129631946263	-0.0043940915504343
14.920000000000	-0.011766797241700	-0.0041987179430478
14.950000000000	-0.012400369492890	-0.0039486492693411
14.980000000000	-0.013024811157593	-0.0036431802021336
15.010000000000	-0.013634309822454	-0.0032823163449474
15.040000000000	-0.014222891368894	-0.0028668396954652
15.070000000000	-0.014784546234930	-0.0023983524184048
15.100000000000	-0.015313363991945	-0.0018792966490024
15.130000000000	-0.015803671150295	-0.0013129491925411
15.160000000000	-0.016250167085975	-0.00070339113634894
15.190000000000	-0.016648053225417	-5.5453478157109e-05
15.220000000000	-0.016993151103298	0.00062535916261506
15.250000000000	-0.017282005571381	0.0013329638943099
15.280000000000	-0.017511970228701	0.0020608105223210
15.310000000000	-0.017681273004023	0.0028020043330718
15.340000000000	-0.017789060690835	0.0035494367415007
15.370000000000	-0.017835422058861	0.0042959199054122
15.400000000000	-0.017821389899302	0.0050343216344968
15.430000000000	-0.017748922971159	0.0057576972762033
15.460000000000	-0.017620869284486	0.0064594156998185
15.490000000000	-0.017440912478844	0.0071332769781850
15.520000000000	-0.017213503240898	0.0077736198409969
15.550000000000	-0.016943777774172	0.0083754174091603
15.580000000000	-0.016637465315414	0.0089343600907615
15.610000000000	-0.016300786618962	0.0094469248117226
15.640000000000	-0.015940345237321	0.0099104299663483
15.670000000000	-0.015563013343664	0.010323075614059
15.700000000000	-0.015175813795135	0.010683968537675
15.730000000000	-0.014785800140143	0.010993131841435
15.760000000000	-0.014399936333518	0.011251498832837
15.790000000000	-0.014024978034419	0.011460891030370
15.820000000000	-0.013667357506877	0.011623980294667
15.850000000000	-0.013333074296754	0.011744235311662
15.880000000000	-0.013027593990767	0.011825852971692
15.910000000000	-0.012755757439423	0.011873675585630
15.940000000000	-0.012521702813854	0.011893095343868
15.970000000000	-0.012328802738895	0.011889947931259
16.000000000000	-0.012179618481984	0.011870397726643
16.030000000000	-0.012075872771042	0.011840817498732
16.060000000000	-0.012018442268554	0.011807665917495
16.090000000000	-0.012007370061241	0.011777366489339
16.120000000000	-0.012041897765177	0.011756191658174
16.150000000000	-0.012120516036455	0.011750155764653
16.180000000000	-0.012241031466986	0.011764920306164
16.210000000000	-0.012400647087893	0.011805714488704
16.240000000000	-0.012596053053623	0.011877273422077
16.270000000000	-0.012823523588461	0.011983795510482
16.300000000000	-0.013079015985504	0.012128919674147
16.330000000000	-0.013358267385652	0.012315722057577
16.360000000000	-0.013656885245302	0.012546730897288
16.390000000000	-0.013970427823581	0.012823957300464
16.420000000000	-0.014294471663153	0.013148938887943
16.450000000000	-0.014624663866492	0.013522792635849
16.480000000000	-0.014956757931255	0.013946272854331
16.510000000000	-0.015286632942542	0.014419830099133
16.540000000000	-0.015610296958335	0.014943666934279
16.570000000000	-0.015923876397748	0.015517786845766
16.600000000000	-0.016223594084022	0.016142033221983
16.630000000000	-0.016505739248292	0.016816116124708
16.660000000000	-0.016766633221816	0.017539625519067
16.690000000000	-0.017002594706058	0.018312030645764
16.720000000000	-0.017209908402735	0.019132666233067
16.750000000000	-0.017384800420446	0.020000707188292
16.780000000000	-0.017523423280099	0.020915134213409
16.810000000000	-0.017621852564207	0.021874693401676
16.840000000000	-0.017676096354488	0.022877853251515
16.870000000000	-0.017682117645838	0.023922762657362
16.900000000000	-0.017635868984107	0.025007213301724
16.930000000000	-0.017533337719146	0.026128609494530
16.960000000000	-0.017370599555263	0.027283947919621
16.990000000000	-0.017143877567863	0.028469809004138
17.020000000000	-0.016849603571166	0.029682360786133
17.050000000000	-0.016484478682292	0.030917375287151
17.080000000000	-0.016045530126957	0.032170256568956
17.110000000000	-0.015530161747364	0.033436078931720
17.140000000000	-0.014936196262709	0.034709633149851
17.170000000000	-0.014261908042083	0.035985478282047
17.200000000000	-0.013506045914730	0.037257996457619
17.230000000000	-0.012667846295699	0.038521448135705
17.260000000000	-0.011747037580209	0.039770025642331
17.290000000000	-0.010743837298886	0.040997903278480
17.320000000000	-0.0096589438821475	0.042199282911275
17.350000000000	-0.0084935250255218	0.043368434649305
17.380000000000	-0.0072492045673039	0.044499732895254
17.410000000000	-0.0059280494947264	0.045587688696632
17.440000000000	-0.0045325582129318	0.046626979816313
17.470000000000	-0.0030656505882087	0.047612480266846
17.500000000000	-0.0015306595724125	0.048539291159518
17.530000000000	6.8676502756176e-05	0.049402774592904
17.560000000000	0.0017282225334808	0.050198591948562
17.590000000000	0.0034434582600551	0.050922747397080
17.620000000000	0.0052094953469453	0.051571636688302
17.650000000000	0.0070211024994923	0.052142100464441
17.680000000000	0.0088727410487457	0.052631480464411
17.710000000000	0.010758613029509	0.053037676159204
17.740000000000	0.012672723121197	0.053359198648455
17.770000000000	0.014608954954360	0.053595218128138
17.800000000000	0.016561161264735	0.053745600967120
17.830000000000	0.018523266274117	0.053810932446960
17.860000000000	0.020489377575544	0.053792521544583
17.890000000000	0.022453903785903	0.053692384767258
17.920000000000	0.024411673385390	0.053513206955676
17.950000000000	0.026358049564380	0.053258278103118
17.980000000000	0.028289035602547	0.052931406526693
18.010000000000	0.030201365350207	0.052536810085554
18.040000000000	0.032092573781647	0.052078988477817
18.070000000000	0.033961043332461	0.051562580867754
18.100000000000	0.035806022779888	0.050992214108181
18.130000000000	0.037627616715945	0.050372347553242
18.160000000000	0.039426745117150	0.049707120845219
18.190000000000	0.041205074037940	0.049000211070571
18.220000000000	0.042964919946250	0.048254705306268
18.250000000000	0.044709131578573	0.047472993836072
18.280000000000	0.046440954325240	0.046656688253201
18.310000000000	0.048163882986957	0.045806567349374
18.340000000000	0.049881509213582	0.044922552208282
18.370000000000	0.051597370014261	0.044003710374399
18.400000000000	0.053314803410566	0.043048287460927
18.430000000000	0.055036816616066	0.042053763196899
18.460000000000	0.056765971118584	0.041016927785472
18.490000000000	0.058504287790110	0.039933973629019
18.520000000000	0.060253173746775	0.038800597024354
18.550000000000	0.062013371231042	0.037612104368947
18.580000000000	0.063784927397083	0.036363517742853
18.610000000000	0.065567182650190	0.035049675409010
18.640000000000	0.067358774211226	0.033665323747615
18.670000000000	0.069157650917360	0.032205198327341
18.700000000000	0.070961094975707	0.030664093120101
18.730000000000	0.072765746473420	0.029036918181040
18.760000000000	0.074567626903185	0.027318747335039
18.790000000000	0.076362158744804	0.025504858436506
18.820000000000	0.078144179183809	0.023590769517252
18.850000000000	0.079907947258410	0.021572274546220
18.880000000000	0.081647145004343	0.019445482560115
18.910000000000	0.083354874405157	0.017206863580532
18.940000000000	0.085023653047444	0.014853304036301
18.970000000000	0.086645412231733	0.012382173413242
19.000000000000	0.088211501823543	0.0097914026358015
19.030000000000	0.089712706293462	0.0070795733430504
19.060000000000	0.091139276166894	0.0042460158635645
19.090000000000	0.092480978490999	0.0012909124307168
19.120000000000	0.093727168966863	-0.0017845988829041
19.150000000000	0.094866887155398	-0.0049783248050187
19.180000000000	0.095888974735740	-0.0082869277814648
19.210000000000	0.096782215280659	-0.011705852885294
19.240000000000	0.097535492529171	-0.015229276024836
19.270000000000	0.098137962795747	-0.018850077960079
19.300000000000	0.098579236062261	-0.022559847497048
19.330000000000	0.098849559539460	-0.026348915828084
19.360000000000	0.098939997120675	-0.030206422422441
19.390000000000	0.098842598213003	-0.034120411260733
19.420000000000	0.098550549918876	-0.038077954667773
19.450000000000	0.098058307418837	-0.042065300646166
19.480000000000	0.097361698608801	-0.046068038548909
19.510000000000	0.096458000479957	-0.050071277232936
19.540000000000	0.095345986285322	-0.054059829557976
19.570000000000	0.094025944091823	-0.058018397254571
19.600000000000	0.092499668746975	-0.061931750764347
19.630000000000	0.090770430480223	-0.065784899603550
19.660000000000	0.088842924214186	-0.069563250034890
19.690000000000	0.086723204109915	-0.073252748245470
19.720000000000	0.084418607875285	-0.076840008695603
19.750000000000	0.081937674925569	-0.080312428692819
19.780000000000	0.079290061636795	-0.083658291428457
19.810000000000	0.076486455748023	-0.086866860575802
19.840000000000	0.073538490552520	-0.089928469996938
19.870000000000	0.070458657997538	-0.092834612079955
19.900000000000	0.067260218331376	-0.095578027706449
19.930000000000	0.063957102641075	-0.098152799849965
19.960000000000	0.060563803654182	-0.10055445138886
19.990000000000	0.057095249653739	-0.10278004598085
20.020000000000	0.053566656368771	-0.10482828892236
20.050000000000	0.049993352306361	-0.10669962295907
20.080000000000	0.046390574196224	-0.10839631219418
20.110000000000	0.042773230987471	-0.10992250572758
20.140000000000	0.039155637086968	-0.11128427161212
20.170000000000	0.035551218133084	-0.11248959126686
20.200000000000	0.031972195396145	-0.11354830474357
20.230000000000	0.028429257699514	-0.11447199825605
20.260000000000	0.024931232361119	-0.11527382716134
20.290000000000	0.021484768862136	-0.11596827007723
20.320000000000	0.018094050568293	-0.11657081293485
20.350000000000	0.014760550698193	-0.11709756534810
20.380000000000	0.011482848729397	-0.11756481554543
20.410000000000	0.0082565224835031	-0.11798853403399
20.440000000000	0.0050741292189650	-0.11838383991625
20.470000000000	0.0019252862275817	-0.11876444711504
20.500000000000	-0.0012031422204978	-0.11914211046017
20.530000000000	-0.0043267490504670	-0.11952609344974
20.560000000000	-0.0074631819111082	-0.11992268036503
20.590000000000	-0.010631641277948	-0.12033475518539
20.620000000000	-0.013852291289078	-0.12076146837368
20.650000000000	-0.017145600091566	-0.12119801010439
20.680000000000	-0.020531630518329	-0.12163550497023
20.710000000000	-0.024029305142852	-0.12206103877593
20.740000000000	-0.027655671975498	-0.12245782291002
20.770000000000	-0.031425198124987	-0.12280549622067
20.800000000000	-0.035349118567520	-0.12308055858318
20.830000000000	-0.039434865725831	-0.12325692472073
20.860000000000	-0.043685602910820	-0.12330658161233
20.890000000000	-0.048099880934656	-0.12320032825741
20.920000000000	-0.052671432540473	-0.12290857289792
20.950000000000	-0.057389113933484	-0.12240216021153
