#Parameters = {CPWG_cut=1.25; GND_len=30; GND_wid=5; Strip_wid=0.85; arr1_posx=10; clrGND=5; couplline_len1=0; couplline_len2=2; couplline_len3=1; couplline_pos=1.5; dip_len=3; dip_pos=3; dip_wid=0.4; dipext_len=2; feed_pos=0.3; gap=0.2; notch_len=2; patch_wid=2.6; sub_h=0.5; via_num=10}
#"Frequency / GHz"	"R1_3_1 [1] [Real/Imaginary Part] [Re]"	"R1_3_1 [1] [Real/Imaginary Part] [Im]"
#-------------------------------------------------------------------------------------------------
10.000000000000	-0.025009346486144	0.020689553784388
10.030000000000	-0.024918787488764	0.021409093304945
10.060000000000	-0.024816423515987	0.022128387966771
10.090000000000	-0.024705990892219	0.022847496925744
10.120000000000	-0.024591267641797	0.023567744911718
10.150000000000	-0.024475717588542	0.024291723650817
10.180000000000	-0.024362142314638	0.025023195220033
10.210000000000	-0.024252367934878	0.025766902190259
10.240000000000	-0.024146991564913	0.026528296765272
10.270000000000	-0.024045208306361	0.027313207708822
10.300000000000	-0.023944733799227	0.028127469146112
10.330000000000	-0.023841830300883	0.028976538890900
10.360000000000	-0.023731436347999	0.029865135466540
10.390000000000	-0.023607391924411	0.030796922285585
10.420000000000	-0.023462743307693	0.031774264517673
10.450000000000	-0.023290105001691	0.032798079166074
10.480000000000	-0.023082050926145	0.033867792105188
10.510000000000	-0.022831503773974	0.034981407760727
10.540000000000	-0.022532090474454	0.036135688307290
10.570000000000	-0.022178433169030	0.037326430352286
10.600000000000	-0.021766348993277	0.038548818735281
10.630000000000	-0.021292938062918	0.039797829941723
10.660000000000	-0.020756547014467	0.041068652285815
10.690000000000	-0.020156604736501	0.042357086924376
10.720000000000	-0.019493336916570	0.043659893239389
10.750000000000	-0.018767376020551	0.044975044315378
10.780000000000	-0.017979292591030	0.046301863093272
10.810000000000	-0.017129081600770	0.047641017068371
10.840000000000	-0.016215643404668	0.048994358700031
10.870000000000	-0.015236302098640	0.050364609442628
10.900000000000	-0.014186404476656	0.051754896799018
10.930000000000	-0.013059040125489	0.053168165271021
10.960000000000	-0.011844917561581	0.054606492743633
10.990000000000	-0.010532422952581	0.056070352926413
11.020000000000	-0.0091078773269362	0.057557871303554
11.050000000000	-0.0075559958762839	0.059064126060027
11.080000000000	-0.0058605397455640	0.060580546270896
11.110000000000	-0.0040051374168621	0.062094457080318
11.140000000000	-0.0019742402882854	0.063588815688251
11.170000000000	0.00024583383400185	0.065042172958363
11.200000000000	0.0026658241171913	0.066428883819990
11.230000000000	0.0052924772450350	0.067719576002209
11.260000000000	0.0081275874602541	0.068881871795955
11.290000000000	0.011167186798097	0.069881342373861
11.320000000000	0.014400940847765	0.070682659632007
11.350000000000	0.017811796530315	0.071250897461761
11.380000000000	0.021375916479087	0.071552923647267
11.410000000000	0.025062920287713	0.071558815921027
11.440000000000	0.028836436947757	0.071243231628099
11.470000000000	0.032654956141467	0.070586660270595
11.500000000000	0.036472949651330	0.069576492018700
11.530000000000	0.040242218960652	0.068207842931980
11.560000000000	0.043913412050812	0.066484088753098
11.590000000000	0.047437642235983	0.064417073121309
11.620000000000	0.050768135233760	0.062026972136312
11.650000000000	0.053861827964562	0.059341814485310
11.680000000000	0.056680843987793	0.056396673853424
11.710000000000	0.059193775960658	0.053232567079574
11.740000000000	0.061376714750440	0.049895106549636
11.770000000000	0.063213977326815	0.046432967789585
11.800000000000	0.064698500603560	0.042896242438029
11.830000000000	0.065831885139428	0.039334752236304
11.860000000000	0.066624090103757	0.035796401092511
11.890000000000	0.067092798184498	0.032325639606615
11.920000000000	0.067262485208786	0.028962109876674
11.950000000000	0.067163243281203	0.025739528353716
11.980000000000	0.066829417475841	0.022684851581970
12.010000000000	0.066298123970741	0.019817754616098
12.040000000000	0.065607721617003	0.017150435619754
12.070000000000	0.064796309142682	0.014687743547621
12.100000000000	0.063900316582353	0.012427609821642
12.130000000000	0.062953252394825	0.010361750401612
12.160000000000	0.061984657575634	0.0084765923836882
12.190000000000	0.061019305541960	0.0067543698518144
12.220000000000	0.060076672437370	0.0051743275886772
12.250000000000	0.059170687614029	0.0037139686535281
12.280000000000	0.058309759259660	0.0023502827727219
12.310000000000	0.057497056269927	0.0010608967777813
12.340000000000	0.056731015265994	-0.00017490440983913
12.370000000000	0.056006031739441	-0.0013753280429076
12.400000000000	0.055313287132783	-0.0025554253674050
12.430000000000	0.054641659515311	-0.0037266627626696
12.460000000000	0.053978664482342	-0.0048967171448854
12.490000000000	0.053311374895845	-0.0060694882165536
12.520000000000	0.052627272825150	-0.0072453089373000
12.550000000000	0.051914994117237	-0.0084213261238515
12.580000000000	0.051164934886777	-0.0095920158142817
12.610000000000	0.050369699246271	-0.010749793255174
12.640000000000	0.049524378137182	-0.011885675225288
12.670000000000	0.048626659517945	-0.012989952864965
12.700000000000	0.047676779803099	-0.014052836049112
12.730000000000	0.046677334797488	-0.015065035298376
12.760000000000	0.045632975008749	-0.016018253832831
12.790000000000	0.044550014857717	-0.016905570122841
12.820000000000	0.043435987790114	-0.017721699629080
12.850000000000	0.042299179617605	-0.018463132791142
12.880000000000	0.041148170712795	-0.019128154196337
12.910000000000	0.039991414202141	-0.019716754776201
12.940000000000	0.038836872392687	-0.020230454466703
12.970000000000	0.037691727752039	-0.020672056767391
13.000000000000	0.036562178293891	-0.021045358902813
13.030000000000	0.035453320667801	-0.021354841807282
13.060000000000	0.034369118050955	-0.021605363018566
13.090000000000	0.033312444478494	-0.021801872978409
13.120000000000	0.032285192839090	-0.021949171482303
13.150000000000	0.031288430623876	-0.022051716442434
13.180000000000	0.030322585768328	-0.022113492103504
13.210000000000	0.029387644583703	-0.022137938764059
13.240000000000	0.028483344754549	-0.022127941267599
13.270000000000	0.027609348512232	-0.022085869354648
13.300000000000	0.026765384142463	-0.022013659661625
13.330000000000	0.025951347659374	-0.021912926889125
13.360000000000	0.025167360466239	-0.021785090529818
13.390000000000	0.024413782807440	-0.021631503546437
13.420000000000	0.023691186502538	-0.021453570443080
13.450000000000	0.023000293586176	-0.021252844126694
13.480000000000	0.022341889858558	-0.021031093601923
13.510000000000	0.021716723849174	-0.020790337635182
13.540000000000	0.021125402253627	-0.020532842798037
13.570000000000	0.020568292535368	-0.020261087493301
13.600000000000	0.020045442174955	-0.019977696438140
13.630000000000	0.019556522141274	-0.019685352423364
13.660000000000	0.019100799739617	-0.019386693834195
13.690000000000	0.018677143276209	-0.019084207311848
13.720000000000	0.018284058195098	-0.018780125027571
13.750000000000	0.017919751711985	-0.018476335363913
13.780000000000	0.017582220688818	-0.018174314441772
13.810000000000	0.017269355724904	-0.017875084033423
13.840000000000	0.016979053300057	-0.017579199133517
13.870000000000	0.016709327354914	-0.017286766014749
13.900000000000	0.016458411939372	-0.016997489170217
13.930000000000	0.016224847455079	-0.016710743328021
13.960000000000	0.016007544467071	-0.016425664879239
13.990000000000	0.015805820929707	-0.016141255716438
14.020000000000	0.015619410802832	-0.015856491721509
14.050000000000	0.015448444251834	-0.015570428005740
14.080000000000	0.015293401756253	-0.015282293479550
14.110000000000	0.015155046335502	-0.014991568356038
14.140000000000	0.015034339601471	-0.014698039673289
14.170000000000	0.014932348365050	-0.014401831726045
14.200000000000	0.014850148996090	-0.014103410278859
14.230000000000	0.014788736646983	-0.013803561432940
14.260000000000	0.014748945825106	-0.013503347884788
14.290000000000	0.014731387704915	-0.013204046909082
14.320000000000	0.014736408105818	-0.012907075609346
14.350000000000	0.014764068351159	-0.012613909728940
14.380000000000	0.014814149405004	-0.012326002560987
14.410000000000	0.014886177898821	-0.012044710237591
14.440000000000	0.014979471043602	-0.011771228953160
14.470000000000	0.015093196091672	-0.011506548554930
14.500000000000	0.015226439057294	-0.011251425514766
14.530000000000	0.015378276886013	-0.011006376697879
14.560000000000	0.015547847203707	-0.010771693693884
14.590000000000	0.015734410166286	-0.010547475900715
14.620000000000	0.015937397724846	-0.010333679169512
14.650000000000	0.016156446744464	-0.010130175727099
14.680000000000	0.016391413771094	-0.0099368203652116
14.710000000000	0.016642370718840	-0.0097535175651502
14.740000000000	0.016909582232505	-0.0095802843232712
14.770000000000	0.017193466854567	-0.0094173039353116
14.800000000000	0.017494545290474	-0.0092649668344562
14.830000000000	0.017813379939582	-0.0091238956838676
14.860000000000	0.018150510384488	-0.0089949532050557
14.890000000000	0.018506389680626	-0.0088792325751418
14.920000000000	0.018881326062361	-0.0087780315425361
14.950000000000	0.019275434111696	-0.0086928125920924
14.980000000000	0.019688598576819	-0.0086251524511057
15.010000000000	0.020120452956189	-0.0085766849003174
15.040000000000	0.020570373769831	-0.0085490411972748
15.070000000000	0.021037490219598	-0.0085437924177756
15.100000000000	0.021520707789943	-0.0085623976866987
15.130000000000	0.022018743347425	-0.0086061616396163
15.160000000000	0.022530168532959	-0.0086762035905105
15.190000000000	0.023053457757959	-0.0087734398543360
15.220000000000	0.023587036942593	-0.0088985795722744
15.250000000000	0.024129329275039	-0.0090521333014682
15.280000000000	0.024678794703641	-0.0092344326454544
15.310000000000	0.025233960555837	-0.0094456583916518
15.340000000000	0.025793441546680	-0.0096858740474294
15.370000000000	0.026355948420737	-0.0099550613657188
15.400000000000	0.026920285482232	-0.010253154441421
15.430000000000	0.027485338227180	-0.010580069234068
15.460000000000	0.028050053121843	-0.010935725901205
15.490000000000	0.028613412209753	-0.011320062061996
15.520000000000	0.029174405627293	-0.011733035987566
15.550000000000	0.029732005237786	-0.012174619659708
15.580000000000	0.030285142450450	-0.012644782574714
15.610000000000	0.030832692889492	-0.013143468018580
15.640000000000	0.031373469956157	-0.013670564236086
15.670000000000	0.031906228535958	-0.014225873404617
15.700000000000	0.032429679210063	-0.014809081567203
15.730000000000	0.032942512406864	-0.015419732660476
15.760000000000	0.033443431051235	-0.016057209495816
15.790000000000	0.033931189504716	-0.016720724039636
15.820000000000	0.034404635999963	-0.017409318633511
15.850000000000	0.034862755403005	-0.018121878953281
15.880000000000	0.035304709015449	-0.018857158595000
15.910000000000	0.035729868264350	-0.019613814266020
15.940000000000	0.036137839508767	-0.020390449722228
15.970000000000	0.036528477788967	-0.021185665891953
16.000000000000	0.036901888110308	-0.021998114116526
16.030000000000	0.037258413730205	-0.022826549155501
16.060000000000	0.037598611836321	-0.023669878571448
16.090000000000	0.037923217897768	-0.024527205326854
16.120000000000	0.038233100771635	-0.025397860876222
16.150000000000	0.038529211295345	-0.026281426685435
16.180000000000	0.038812527543847	-0.027177742908049
16.210000000000	0.039084000147687	-0.028086903834661
16.240000000000	0.039344501039336	-0.029009240640484
16.270000000000	0.039594778724989	-0.029945292820877
16.300000000000	0.039835422689733	-0.030895770461841
16.330000000000	0.040066838873461	-0.031861510088062
16.360000000000	0.040289237354418	-0.032843427223537
16.390000000000	0.040502632506816	-0.033842468963082
16.420000000000	0.040706855022811	-0.034859569778438
16.450000000000	0.040901574371174	-0.035895613479255
16.480000000000	0.041086329563674	-0.036951403742639
16.510000000000	0.041260565564601	-0.038027644955482
16.540000000000	0.041423672344746	-0.039124934333033
16.570000000000	0.041575023469307	-0.040243765444002
16.600000000000	0.041714011222964	-0.041384542448544
16.630000000000	0.041840075602165	-0.042547603600643
16.660000000000	0.041952725015731	-0.043733251934202
16.690000000000	0.042051547189006	-0.044941790586018
16.720000000000	0.042136209512532	-0.046173559939091
16.750000000000	0.042206448856930	-0.047428973711368
16.780000000000	0.042262051632814	-0.048708551267289
16.810000000000	0.042302825553086	-0.050012943775714
16.840000000000	0.042328565106527	-0.051342952347442
16.870000000000	0.042339013138741	-0.052699536916396
16.900000000000	0.042333821134573	-0.054083815330457
16.930000000000	0.042312510795574	-0.055497052836413
16.960000000000	0.042274439312173	-0.056940642824099
16.990000000000	0.042218770362955	-0.058416080287298
17.020000000000	0.042144452365321	-0.059924929920695
17.050000000000	0.042050204895271	-0.061468791071562
17.080000000000	0.041934513538249	-0.063049261883249
17.110000000000	0.041795632779497	-0.064667904900602
17.140000000000	0.041631595941716	-0.066326216164945
17.170000000000	0.041440230675251	-0.068025599431390
17.200000000000	0.041219178138472	-0.069767346628317
17.230000000000	0.040965913799124	-0.071552625090699
17.260000000000	0.040677767754076	-0.073382471483197
17.290000000000	0.040351942604347	-0.075257791734682
17.320000000000	0.039985527220231	-0.077179365779585
17.350000000000	0.039575505161765	-0.079147855483609
17.380000000000	0.039118757046339	-0.081163813853135
17.410000000000	0.038612056735290	-0.083227693509547
17.440000000000	0.038052061797941	-0.085339852458550
17.470000000000	0.037435299258653	-0.087500555395078
17.500000000000	0.036758148097007	-0.089709969138085
17.530000000000	0.036016820317611	-0.091968151257506
17.560000000000	0.035207342607730	-0.094275031500099
17.590000000000	0.034325540643317	-0.096630386198762
17.620000000000	0.033367027984710	-0.099033806415739
17.650000000000	0.032327201232461	-0.10148466108000
17.680000000000	0.031201242713353	-0.10398205679354
17.710000000000	0.029984131468270	-0.10652479626893
17.740000000000	0.028670662756294	-0.10911133749935
17.770000000000	0.027255475716347	-0.11173975574273
17.800000000000	0.025733088283200	-0.11440771022531
17.830000000000	0.024097937980407	-0.11711241715194
17.860000000000	0.022344426844848	-0.11985063017451
17.890000000000	0.020466968503919	-0.12261862895142
17.920000000000	0.018460035344428	-0.12541221586870
17.950000000000	0.016318203787812	-0.12822672043113
17.980000000000	0.014036195913041	-0.13105701031270
18.010000000000	0.011608916029336	-0.13389750761878
18.040000000000	0.0090314812672856	-0.13674220859183
18.070000000000	0.0062992457942233	-0.13958470481143
18.100000000000	0.0034078188265170	-0.14241820391341
18.130000000000	0.00035307716509978	-0.14523554798209
18.160000000000	-0.0028688265206836	-0.14802922804651
18.190000000000	-0.0062614580296700	-0.15079139351471
18.220000000000	-0.0098280966716624	-0.15351385588003
18.250000000000	-0.013571728963684	-0.15618808659389
18.280000000000	-0.017495038943932	-0.15880520957916
18.310000000000	-0.021600393239157	-0.16135598941464
18.340000000000	-0.025889819335470	-0.16383081671535
18.370000000000	-0.030364975937369	-0.16621969262769
18.400000000000	-0.035027114824260	-0.16851221462720
18.430000000000	-0.039877034191124	-0.17069756592957
18.460000000000	-0.044915024049759	-0.17276451079491
18.490000000000	-0.050140804828547	-0.17470139782494
18.520000000000	-0.055553460803671	-0.17649617303492
18.550000000000	-0.061151370390405	-0.17813640405200
18.580000000000	-0.066932135594347	-0.17960931627845
18.610000000000	-0.072892513053429	-0.18090184129994
18.640000000000	-0.079028349087112	-0.18200067725262
18.670000000000	-0.085334521014394	-0.18289236032881
18.700000000000	-0.091804886722802	-0.18356334613290
18.730000000000	-0.098432244090200	-0.18400009922691
18.760000000000	-0.10520830141095	-0.18418918895074
18.790000000000	-0.11212365949298	-0.18411738947659
18.820000000000	-0.11916780560879	-0.18377178206321
18.850000000000	-0.12632911903766	-0.18313985760492
18.880000000000	-0.13359488755819	-0.18220961780534
18.910000000000	-0.14095133396682	-0.18096967362133
18.940000000000	-0.14838365152388	-0.17940933998806
18.970000000000	-0.15587604717332	-0.17751872621676
19.000000000000	-0.16341179144141	-0.17528882181864
19.030000000000	-0.17097327408325	-0.17271157781908
19.060000000000	-0.17854206479095	-0.16977998385799
19.090000000000	-0.18609897857918	-0.16648814150500
19.120000000000	-0.19362414578746	-0.16283133423985
19.150000000000	-0.20109708695250	-0.15880609445708
19.180000000000	-0.20849679307250	-0.15441026765679
19.210000000000	-0.21580181197983	-0.14964307369749
19.240000000000	-0.22299034163356	-0.14450516463669
19.270000000000	-0.23004033112295	-0.13899867830185
19.300000000000	-0.23692959002904	-0.13312728635223
19.330000000000	-0.24363590652692	-0.12689623524755
19.360000000000	-0.25013717423836	-0.12031237826624
19.390000000000	-0.25641152738419	-0.11338419654376
19.420000000000	-0.26243748326842	-0.10612180705417
19.450000000000	-0.26819409058498	-0.098536955549408
19.480000000000	-0.27366108151254	-0.090642992706344
19.510000000000	-0.27881902509081	-0.082454832105889
19.540000000000	-0.28364947898899	-0.073988889165052
19.570000000000	-0.28813513651579	-0.065263000738062
19.600000000000	-0.29225996560274	-0.056296325762723
19.630000000000	-0.29600933653526	-0.047109228015916
19.660000000000	-0.29937013541116	-0.037723142716369
19.690000000000	-0.30233086066982	-0.028160429332192
19.720000000000	-0.30488170053839	-0.018444213477349
19.750000000000	-0.30701458985963	-0.0085982211818932
19.780000000000	-0.30872324546387	0.0013533909298152
19.810000000000	-0.31000317998707	0.011386205936548
19.840000000000	-0.31085169477442	0.021475713867303
19.870000000000	-0.31126785320330	0.031597472629803
19.900000000000	-0.31125243637004	0.041727259760856
19.930000000000	-0.31080788357827	0.051841212673608
19.960000000000	-0.30993822041549	0.061915955703460
19.990000000000	-0.30864897739241	0.071928712934982
20.020000000000	-0.30694710213856	0.081857406484553
20.050000000000	-0.30484086800253	0.091680740575732
20.080000000000	-0.30233978160988	0.10137827233750
20.110000000000	-0.29945449150962	0.11093047074500
20.140000000000	-0.29619669952293	0.12031876548185
20.170000000000	-0.29257907583173	0.12952558771406
20.200000000000	-0.28861517825025	0.13853440482082
20.230000000000	-0.28431937554869	0.14732975102896
20.260000000000	-0.27970677418334	0.15589725565867
20.290000000000	-0.27479314736425	0.16422367032877
20.320000000000	-0.26959486508563	0.17229689602044
20.350000000000	-0.26412882357355	0.18010601039146
20.380000000000	-0.25841237257820	0.18764129520697
20.410000000000	-0.25246323905210	0.19489426324402
20.440000000000	-0.24629944600069	0.20185768357128
20.470000000000	-0.23993922564844	0.20852560373291
20.500000000000	-0.23340092650494	0.21489336710164
20.530000000000	-0.22670291441176	0.22095762352671
20.560000000000	-0.21986346816667	0.22671633139623
20.590000000000	-0.21290067082438	0.23216874935950
20.620000000000	-0.20583229822863	0.23731541620392
20.650000000000	-0.19867570671184	0.24215811773624
20.680000000000	-0.19144772218204	0.24669983995549
20.710000000000	-0.18416453298764	0.25094470829841
20.740000000000	-0.17684158899922	0.25489791325614
20.770000000000	-0.16949350927565	0.25856562317399
20.800000000000	-0.16213400049503	0.26195488552494
20.830000000000	-0.15477578804424	0.26507351836727
20.860000000000	-0.14743056129379	0.26792999403628
20.890000000000	-0.14010893415930	0.27053331736671
20.920000000000	-0.13282042159398	0.27289290088662
20.950000000000	-0.12557343219189	0.27501843946591
20.980000000000	-0.11837527663416	0.27691978684772
21.010000000000	-0.11123219130006	0.27860683634997
21.040000000000	-0.10414937600847	0.28008940781172
