#Parameters = {CPWG_cut=1.25; GND_len=30; GND_wid=5; Strip_wid=0.85; arr1_posx=10; clrGND=5; couplline_len1=0; couplline_len2=2; couplline_len3=1; couplline_pos=1.5; dip_len=3; dip_pos=3; dip_wid=0.4; dipext_len=2; feed_pos=0.3; gap=0.2; notch_len=2; patch_wid=2.6; sub_h=0.5; via_num=10}
#"Frequency / GHz"	"R1_5_6 [1] [Real/Imaginary Part] [Re]"	"R1_5_6 [1] [Real/Imaginary Part] [Im]"
#-------------------------------------------------------------------------------------------------
10.000000000000	-0.0050889755793842	0.031733406523655
10.030000000000	-0.0043136751770646	0.032459273657766
10.060000000000	-0.0034935174556896	0.033163062798316
10.090000000000	-0.0026315729030340	0.033842931236905
10.120000000000	-0.0017306776230180	0.034497976539054
10.150000000000	-0.00079316630277899	0.035128088257542
10.180000000000	0.00017933798046356	0.035733728222028
10.210000000000	0.0011860585820697	0.036315658756353
10.240000000000	0.0022271124106279	0.036874642855399
10.270000000000	0.0033034643570709	0.037411143126024
10.300000000000	0.0044167919571602	0.037925046895207
10.330000000000	0.0055692710711838	0.038415443213547
10.360000000000	0.0067633005300076	0.038880473611842
10.390000000000	0.0080011895694926	0.039317272656131
10.420000000000	0.0092848359435972	0.039722007005502
10.450000000000	0.010615424486272	0.040090013351582
10.480000000000	0.011993175360215	0.040416026945856
10.510000000000	0.013417168245491	0.040694484083505
10.540000000000	0.014885263431111	0.040919874587703
10.570000000000	0.016394133509496	0.041087114646584
10.600000000000	0.017939410631653	0.041191906811028
10.630000000000	0.019515944684293	0.041231052932234
10.660000000000	0.021118158009975	0.041202687491758
10.690000000000	0.022740473154430	0.041106403143290
10.720000000000	0.024377782319535	0.040943247131544
10.750000000000	0.026025921380868	0.040715576173064
10.780000000000	0.027682108026641	0.040426767801193
10.810000000000	0.029345303155600	0.040080797386389
10.840000000000	0.031016457303165	0.039681701252618
10.870000000000	0.032698609500671	0.039232956700853
10.900000000000	0.034396814346911	0.038736818530561
10.930000000000	0.036117883714138	0.038193658114374
10.960000000000	0.037869941774155	0.037601354663293
10.990000000000	0.039661805129534	0.036954788635517
11.020000000000	0.041502212899682	0.036245484120911
11.050000000000	0.043398943743755	0.035461440536595
11.080000000000	0.045357867138299	0.034587184391699
11.110000000000	0.047381983997248	0.033604059734436
11.140000000000	0.049470516304570	0.032490761884856
11.170000000000	0.051618106398916	0.031224104030457
11.200000000000	0.053814183706142	0.029779991159569
11.230000000000	0.056042550105828	0.028134561600459
11.260000000000	0.058281225036087	0.026265444060503
11.290000000000	0.060502578413212	0.024153068361948
11.320000000000	0.062673764197688	0.021781961737948
11.350000000000	0.064757450861589	0.019141960073564
11.380000000000	0.066712828092863	0.016229265104611
11.410000000000	0.068496852836943	0.013047284320935
11.440000000000	0.070065683227403	0.0096071999004543
11.470000000000	0.071376237005568	0.0059282259223781
11.500000000000	0.072387802435116	0.0020375286548074
11.530000000000	0.073063625043423	-0.0020301980043716
11.560000000000	0.073372393092025	-0.0062334918362729
11.590000000000	0.073289548561678	-0.010525188564468
11.620000000000	0.072798358438004	-0.014853750940594
11.650000000000	0.071890692755346	-0.019164802503340
11.680000000000	0.070567470530301	-0.023402796988224
11.710000000000	0.068838751542710	-0.027512747264951
11.740000000000	0.066723469923666	-0.031441934753103
11.770000000000	0.064248823644706	-0.035141521664219
11.800000000000	0.061449351226211	-0.038567994027361
11.830000000000	0.058365742316547	-0.041684372913094
11.860000000000	0.055043441380901	-0.044461143988578
11.890000000000	0.051531112899240	-0.046876870738058
11.920000000000	0.047879041740578	-0.048918473455603
11.950000000000	0.044137543529973	-0.050581173469634
11.980000000000	0.040355456879880	-0.051868118984429
12.010000000000	0.036578782586926	-0.052789724462206
12.040000000000	0.032849524789869	-0.053362768764766
12.070000000000	0.029204776322500	-0.053609307625919
12.100000000000	0.025676075896144	-0.053555462929516
12.130000000000	0.022289049216363	-0.053230154439064
12.160000000000	0.019063330612457	-0.052663839012600
12.190000000000	0.016012747140995	-0.051887318119669
12.220000000000	0.013145734235150	-0.050930667046518
12.250000000000	0.010465941495236	-0.049822329102850
12.280000000000	0.0079729796656423	-0.048588406139645
12.310000000000	0.0056632555338459	-0.047252163554443
12.340000000000	0.0035308405213642	-0.045833754536279
12.370000000000	0.0015683210075493	-0.044350155408536
12.400000000000	-0.00023241636736953	-0.042815292317148
12.430000000000	-0.0018795035048264	-0.041240329823519
12.460000000000	-0.0033805433117928	-0.039634084686250
12.490000000000	-0.0047422146836585	-0.038003523569237
12.520000000000	-0.0059700377280532	-0.036354301724199
12.550000000000	-0.0070682961009324	-0.034691300804458
12.580000000000	-0.0080401034288515	-0.033019127639681
12.610000000000	-0.0088875924195988	-0.031342541652119
12.640000000000	-0.0096121988614383	-0.029666786117549
12.670000000000	-0.010215008572058	-0.027997807081338
12.700000000000	-0.010697133611569	-0.026342352805722
12.730000000000	-0.011060084685633	-0.024707955526889
12.760000000000	-0.011306109447505	-0.023102805463384
12.790000000000	-0.011438471041084	-0.021535533945641
12.820000000000	-0.011461647285281	-0.020014927845351
12.850000000000	-0.011381437886758	-0.018549600918476
12.880000000000	-0.011204974453028	-0.017147649123232
12.910000000000	-0.010940635334526	-0.015816316461654
12.940000000000	-0.010597873965695	-0.014561695579210
12.970000000000	-0.010186974984975	-0.013388483514031
13.000000000000	-0.0097187566709720	-0.012299807977002
13.030000000000	-0.0092042409284294	-0.011297133786673
13.060000000000	-0.0086543131049702	-0.010380253025904
13.090000000000	-0.0080793933500482	-0.0095473565714667
13.120000000000	-0.0074891391845125	-0.0087951792782872
13.150000000000	-0.0068921956708308	-0.0081192066185142
13.180000000000	-0.0062960053713387	-0.0075139272405289
13.210000000000	-0.0057066855125592	-0.0069731138856351
13.240000000000	-0.0051289748136995	-0.0064901144387321
13.270000000000	-0.0045662476536377	-0.0060581355503779
13.300000000000	-0.0040205889743265	-0.0056705031154719
13.330000000000	-0.0034929198236327	-0.0053208867149302
13.360000000000	-0.0029831609273776	-0.0050034786501460
13.390000000000	-0.0024904202644866	-0.0047131221202513
13.420000000000	-0.0020131903284784	-0.0044453870935241
13.450000000000	-0.0015495415356334	-0.0041965962047349
13.480000000000	-0.0010972999517187	-0.0039638063032094
13.510000000000	-0.00065419995984904	-0.0037447538684778
13.540000000000	-0.00021800544308312	-0.0035377742543679
13.570000000000	0.00021340375558496	-0.0033417055448131
13.600000000000	0.00064198017035945	-0.0031557877069757
13.630000000000	0.0010694890311072	-0.0029795667820903
13.660000000000	0.0014975153397504	-0.0028128121956809
13.690000000000	0.0019274907163739	-0.0026554530784112
13.720000000000	0.0023607320047743	-0.0025075369801087
13.750000000000	0.0027984833833508	-0.0023692117588094
13.780000000000	0.0032419542328771	-0.0022407289552338
13.810000000000	0.0036923461803540	-0.0021224648199191
13.840000000000	0.0041508644314252	-0.0020149535072017
13.870000000000	0.0046187105504155	-0.0019189259016757
13.900000000000	0.0050970560540242	-0.0018353471577299
13.930000000000	0.0055869983548393	-0.0017654463136474
13.960000000000	0.0060895025385226	-0.0017107322357809
13.990000000000	0.0066053340240380	-0.0016729915545200
14.020000000000	0.0071349882177610	-0.0016542660327838
14.050000000000	0.0076786237537299	-0.0016568087944829
14.080000000000	0.0082360057883573	-0.0016830208582044
14.110000000000	0.0088064651138043	-0.0017353712967155
14.140000000000	0.0093888776423577	-0.0018163059190409
14.170000000000	0.0099816672064475	-0.0019281505210720
14.200000000000	0.010582832757030	-0.0020730153833414
14.230000000000	0.011189999085714	-0.0022527077654739
14.260000000000	0.011800488306318	-0.0024686586572707
14.290000000000	0.012411407663578	-0.0027218690430223
14.320000000000	0.013019747923701	-0.0030128795055356
14.350000000000	0.013622485745657	-0.0033417652589834
14.380000000000	0.014216683097468	-0.0037081567968789
14.410000000000	0.014799576990071	-0.0041112844255976
14.440000000000	0.015368653531026	-0.0045500431757870
14.470000000000	0.015921701489657	-0.0050230730812203
14.500000000000	0.016456842117520	-0.0055288487010215
14.530000000000	0.016972533760201	-0.0060657711185548
14.560000000000	0.017467551689064	-0.0066322555229858
14.590000000000	0.017940945429579	-0.0072268078716291
14.620000000000	0.018391977527400	-0.0078480850073326
14.650000000000	0.018820049051626	-0.0084949338937912
14.680000000000	0.019224618089128	-0.0091664072316293
14.710000000000	0.019605117968985	-0.0098617545066309
14.740000000000	0.019960881942603	-0.010580389364195
14.770000000000	0.020291080541219	-0.011321835965165
14.800000000000	0.020594676882386	-0.012085658530604
14.830000000000	0.020870403876754	-0.012871379517860
14.860000000000	0.021116765697279	-0.013678392704024
14.890000000000	0.021332064133448	-0.014505877833340
14.920000000000	0.021514448689714	-0.015352723394053
14.950000000000	0.021661987624948	-0.016217463543837
14.980000000000	0.021772755682762	-0.017098234249649
15.010000000000	0.021844933126551	-0.017992752423811
15.040000000000	0.021876909938833	-0.018898320320484
15.070000000000	0.021867388713202	-0.019811855816304
15.100000000000	0.021815479869170	-0.020729947551427
15.130000000000	0.021720783334534	-0.021648932364571
15.160000000000	0.021583451718014	-0.022564991118413
15.190000000000	0.021404231164225	-0.023474257961894
15.220000000000	0.021184477454205	-0.024372937372230
15.250000000000	0.020926146387922	-0.025257422993624
15.280000000000	0.020631758958492	-0.026124412345786
15.310000000000	0.020304343204267	-0.026971011890883
15.340000000000	0.019947355819486	-0.027794827675892
15.370000000000	0.019564587549008	-0.028594037742959
15.400000000000	0.019160057041618	-0.029367443644346
15.430000000000	0.018737898166628	-0.030114499625055
15.460000000000	0.018302245811093	-0.030835319259319
15.490000000000	0.017857124893265	-0.031530660467135
15.520000000000	0.017406346794378	-0.032201890825860
15.550000000000	0.016953416682632	-0.032850935877533
15.580000000000	0.016501454346901	-0.033480213681901
15.610000000000	0.016053130243382	-0.034092559164899
15.640000000000	0.015610617554350	-0.034691141868920
15.670000000000	0.015175560225454	-0.035279380548591
15.700000000000	0.014749056236173	-0.035860857712228
15.730000000000	0.014331654802408	-0.036439236732972
15.760000000000	0.013923365829736	-0.037018183598719
15.790000000000	0.013523679733276	-0.037601294790480
15.820000000000	0.013131595702859	-0.038192032224837
15.850000000000	0.012745656594893	-0.038793665709822
15.880000000000	0.012363988839879	-0.039409222975591
15.910000000000	0.011984346026535	-0.040041447069757
15.940000000000	0.011604155117840	-0.040692760756499
15.970000000000	0.011220564531672	-0.041365237520094
16.000000000000	0.010830493546083	-0.042060578827659
16.030000000000	0.010430682642476	-0.042780097424673
16.060000000000	0.010017744466093	-0.043524706587073
16.090000000000	0.0095882150607129	-0.044294915401088
16.120000000000	0.0091386049331751	-0.045090830254232
16.150000000000	0.0086654493428587	-0.045912162771433
16.180000000000	0.0081653570184944	-0.046758244400901
16.210000000000	0.0076350563111578	-0.047628047736654
16.240000000000	0.0070714376303168	-0.048520214461129
16.270000000000	0.0064715909094799	-0.049433089515139
16.300000000000	0.0058328368337694	-0.050364760775804
16.330000000000	0.0051527506500065	-0.051313103175440
16.360000000000	0.0044291775770473	-0.052275825859206
16.390000000000	0.0036602391357401	-0.053250520691439
16.420000000000	0.0028443301089651	-0.054234710211977
16.450000000000	0.0019801062980904	-0.055225893041458
16.480000000000	0.0010664637308150	-0.056221584756927
16.510000000000	0.00010251045981833	-0.057219352414657
16.540000000000	-0.00091246746653098	-0.058216841183179
16.570000000000	-0.0019790439176157	-0.059211791951943
16.600000000000	-0.0030976922827603	-0.060202049275820
16.630000000000	-0.0042688244498087	-0.061185559569518
16.660000000000	-0.0054928268790607	-0.062160360040616
16.690000000000	-0.0067700916732796	-0.063124559403499
16.720000000000	-0.0081010408670110	-0.064076311908387
16.750000000000	-0.0094861426007601	-0.065013786612825
16.780000000000	-0.010925918377077	-0.065935134088004
16.810000000000	-0.012420941178357	-0.066838452868704
16.840000000000	-0.013971824817940	-0.067721757914941
16.870000000000	-0.015579205453818	-0.068582953158828
16.900000000000	-0.017243716677311	-0.069419809876942
16.930000000000	-0.018965959962810	-0.070229952182724
16.960000000000	-0.020746472503051	-0.071010850409590
16.990000000000	-0.022585694542000	-0.071759822594105
17.020000000000	-0.024483938251090	-0.072474043712654
17.050000000000	-0.026441359982902	-0.073150561816631
17.080000000000	-0.028457937399823	-0.073786319788044
17.110000000000	-0.030533452543533	-0.074378181129777
17.140000000000	-0.032667481421547	-0.074922958033266
17.170000000000	-0.034859390180558	-0.075417439939830
17.200000000000	-0.037108337454770	-0.075858420927552
17.230000000000	-0.039413282059761	-0.076242724498420
17.260000000000	-0.041772994881462	-0.076567224685381
17.290000000000	-0.044186073609663	-0.076828862812307
17.320000000000	-0.046650958899266	-0.077024659683143
17.350000000000	-0.049165950611752	-0.077151723408545
17.380000000000	-0.051729222983461	-0.077207253459977
17.410000000000	-0.054338837864660	-0.077188541838015
17.440000000000	-0.056992755543493	-0.077092972426734
17.470000000000	-0.059688843074365	-0.076918019663278
17.500000000000	-0.062424880430843	-0.076661247575961
17.530000000000	-0.065198565158264	-0.076320310043104
17.560000000000	-0.068007516474663	-0.075892952816919
17.590000000000	-0.070849279930471	-0.075377017471468
17.620000000000	-0.073721333768090	-0.074770447007422
17.650000000000	-0.076621098013140	-0.074071292420803
17.680000000000	-0.079545947084245	-0.073277719160308
17.710000000000	-0.082493226343903	-0.072388012098464
17.740000000000	-0.085460272557060	-0.071400577459725
17.770000000000	-0.088444437713254	-0.070313940108729
17.800000000000	-0.091443115145820	-0.069126734718001
17.830000000000	-0.094453766393607	-0.067837689607172
17.860000000000	-0.097473946842002	-0.066445602462951
17.890000000000	-0.10050132789130	-0.064949307685551
17.920000000000	-0.10353371326378	-0.063347635727070
17.950000000000	-0.10656904709782	-0.061639365446433
17.980000000000	-0.10960541169631	-0.059823171154313
18.010000000000	-0.11264101319207	-0.057897566610014
18.040000000000	-0.11567415394521	-0.055860848712588
18.070000000000	-0.11870319116471	-0.053711043959596
18.100000000000	-0.12172648200540	-0.051445860897563
18.130000000000	-0.12474231618290	-0.049062651739929
18.160000000000	-0.12774883791735	-0.046558386076339
18.190000000000	-0.13074395970971	-0.043929639152451
18.220000000000	-0.13372527102194	-0.041172596586252
18.250000000000	-0.13668994533245	-0.038283076643191
18.280000000000	-0.13963464924285	-0.035256570365355
18.310000000000	-0.14255545730267	-0.032088298993817
18.340000000000	-0.14544777599668	-0.028773287294897
18.370000000000	-0.14830627991678	-0.025306450655542
18.400000000000	-0.15112486254802	-0.021682693199899
18.430000000000	-0.15389660337505	-0.017897013738462
18.460000000000	-0.15661375221329	-0.013944616120398
18.490000000000	-0.15926773084304	-0.0098210205319192
18.520000000000	-0.16184915123261	-0.0055221724660848
18.550000000000	-0.16434784893257	-0.0010445464643469
18.580000000000	-0.16675292965468	0.0036147577347125
18.610000000000	-0.16905282665302	0.0084579283522614
18.640000000000	-0.17123536632500	0.013486365028155
18.670000000000	-0.17328783945357	0.018700612853678
18.700000000000	-0.17519707571350	0.024100306573148
18.730000000000	-0.17694951943945	0.029684123972627
18.760000000000	-0.17853130516744	0.035449747040867
18.790000000000	-0.17992833206661	0.041393829230027
18.820000000000	-0.18112633702170	0.047511967079609
18.850000000000	-0.18211096675220	0.053798674598548
18.880000000000	-0.18286784990652	0.060247359114164
18.910000000000	-0.18338267049966	0.066850297764301
18.940000000000	-0.18364124433250	0.073598614389756
18.970000000000	-0.18362960011168	0.080482257227694
19.000000000000	-0.18333406687183	0.087489978457306
19.030000000000	-0.18274136898918	0.094609317249432
19.060000000000	-0.18183872958869	0.10182658846835
19.090000000000	-0.18061398252033	0.10912687952007
19.120000000000	-0.17905569235941	0.11649405800173
19.150000000000	-0.17715328112672	0.12391079276014
19.180000000000	-0.17489715968440	0.13135859070795
19.210000000000	-0.17227886110208	0.13881785128522
19.240000000000	-0.16929117275818	0.14626793981731
19.270000000000	-0.16592826358800	0.15368728024944
19.300000000000	-0.16218580274630	0.16105346688359
19.330000000000	-0.15806106603319	0.16834339386472
19.360000000000	-0.15355302674105	0.17553340032140
19.390000000000	-0.14866242809887	0.18259942832110
19.420000000000	-0.14339183518805	0.18951719020607
19.450000000000	-0.13774566503506	0.19626234147565
19.480000000000	-0.13173019449507	0.20281065520425
19.510000000000	-0.12535354646507	0.20913819404591
19.540000000000	-0.11862565584182	0.21522147617138
19.570000000000	-0.11155821740755	0.22103763199409
19.600000000000	-0.10416461843163	0.22656454922837
19.630000000000	-0.096459859177775	0.23178100464010
19.660000000000	-0.088460464675488	0.23666678173595
19.690000000000	-0.080184391041276	0.24120277452910
19.720000000000	-0.071650929325992	0.24537107835087
19.750000000000	-0.062880609343932	0.24915506938840
19.780000000000	-0.053895105246330	0.25253947516485
19.810000000000	-0.044717143789459	0.25551043849991
19.840000000000	-0.035370415377328	0.25805557756994
19.870000000000	-0.025879487097466	0.26016404451967
19.900000000000	-0.016269716182376	0.26182658467138
19.930000000000	-0.0065671616809279	0.26303559776008
19.960000000000	0.0032015083337717	0.26378520183644
19.990000000000	0.013009116920313	0.26407129957935
20.020000000000	0.022828088660382	0.26389164581031
20.050000000000	0.032630572866417	0.26324591407205
20.080000000000	0.042388581644111	0.26213575929153
20.110000000000	0.052074144083336	0.26056487285721
20.140000000000	0.061659476907564	0.25853902595599
20.170000000000	0.071117170846072	0.25606609677814
20.200000000000	0.080420390871205	0.25315607723515
20.230000000000	0.089543087334429	0.24982105515323
20.260000000000	0.098460214009976	0.24607516849573
20.290000000000	0.10714794817907	0.24193452900306
20.320000000000	0.11558390721742	0.23741711367853
20.350000000000	0.12374735572844	0.23254262373558
20.380000000000	0.13161939712383	0.22733231189556
20.410000000000	0.13918314370451	0.22180878021403
20.440000000000	0.14642385973415	0.21599575185047
20.470000000000	0.15332907270396	0.20991782131497
20.500000000000	0.15988864892577	0.20360018866770
20.530000000000	0.16609483071232	0.19706838386670
20.560000000000	0.17194223365249	0.19034798792174
20.590000000000	0.17742780380369	0.18346435769933
20.620000000000	0.18255073593799	0.17644236113102
20.650000000000	0.18731235523444	0.16930612921662
20.680000000000	0.19171596594925	0.16207883061048
20.710000000000	0.19576667157260	0.15478247376715
20.740000000000	0.19947117175997	0.14743774064921
20.770000000000	0.20283754188153	0.14006385491276
20.800000000000	0.20587500135590	0.13267848633855
20.830000000000	0.20859367702347	0.12529769211901
20.860000000000	0.21100436768269	0.11793589449178
20.890000000000	0.21311831558005	0.11060589316955
20.920000000000	0.21494699014049	0.10331891008792
20.950000000000	0.21650188858147	0.096084663202724
20.980000000000	0.21779435730639	0.088911465431728
