#Parameters = {CPWG_cut=1.25; GND_len=30; GND_wid=5; Strip_wid=0.85; arr1_posx=10; clrGND=5; couplline_len1=0; couplline_len2=2; couplline_len3=1; couplline_pos=1.5; dip_len=3; dip_pos=3; dip_wid=0.4; dipext_len=2; feed_pos=0.3; gap=0.2; notch_len=2; patch_wid=2.6; sub_h=0.5; via_num=10}
#"Frequency / GHz"	"R1_3_1 [1] [Real/Imaginary Part] [Re]"	"R1_3_1 [1] [Real/Imaginary Part] [Im]"
#-------------------------------------------------------------------------------------------------
10.000000000000	-0.021245692619567	0.021401821673164
10.030000000000	-0.021085743801079	0.022017397053977
10.060000000000	-0.020917532022881	0.022627842856122
10.090000000000	-0.020745372801950	0.023233121167983
10.120000000000	-0.020573728879080	0.023834573065126
10.150000000000	-0.020406823955954	0.024434955532006
10.180000000000	-0.020248254385494	0.025038371042428
10.210000000000	-0.020100628681464	0.025650092126247
10.240000000000	-0.019965263235063	0.026276291502439
10.270000000000	-0.019841958897314	0.026923695974134
10.300000000000	-0.019728877344212	0.027599188655687
10.330000000000	-0.019622528783068	0.028309388713751
10.360000000000	-0.019517874112221	0.029060240254564
10.390000000000	-0.019408535735486	0.029856642035084
10.420000000000	-0.019287102530992	0.030702147249627
10.450000000000	-0.019145506655195	0.031598757865339
10.480000000000	-0.018975443550946	0.032546831149081
10.510000000000	-0.018768802250186	0.033545107606921
10.540000000000	-0.018518071204947	0.034590860139179
10.570000000000	-0.018216685662231	0.035680154482960
10.600000000000	-0.017859286045732	0.036808201696894
10.630000000000	-0.017441862750133	0.037969775255829
10.660000000000	-0.016961770832278	0.039159658920202
10.690000000000	-0.016417607770871	0.040373087467666
10.720000000000	-0.015808958102019	0.041606141011325
10.750000000000	-0.015136019572065	0.042856055182068
10.780000000000	-0.014399135694924	0.044121413919683
10.810000000000	-0.013598268489073	0.045402198786713
10.840000000000	-0.012732452003450	0.046699678178723
10.870000000000	-0.011799271449493	0.048016130967444
10.900000000000	-0.010794413933690	0.049354411253328
10.930000000000	-0.0097113347261246	0.050717373204388
10.960000000000	-0.0085410777194319	0.052107186565100
10.990000000000	-0.0072722804661104	0.053524583500855
11.020000000000	-0.0058913833790692	0.054968085247205
11.050000000000	-0.0043830499756769	0.056433261939038
11.080000000000	-0.0027307912216003	0.057912080560607
11.110000000000	-0.00091777296707102	0.059392393952205
11.140000000000	0.0010722279148791	0.060857618234009
11.170000000000	0.0032537648811869	0.062286637098876
11.200000000000	0.0056386161577308	0.063653959645605
11.230000000000	0.0082346941778627	0.064930144432837
11.260000000000	0.011045034667484	0.066082487050652
11.290000000000	0.014066928891226	0.067075952659634
11.320000000000	0.017291257535100	0.067874319612403
11.350000000000	0.020702075961182	0.068441486414443
11.380000000000	0.024276488572561	0.068742882788564
11.410000000000	0.027984835426604	0.068746917236574
11.440000000000	0.031791197858547	0.068426388816588
11.470000000000	0.035654212673800	0.067759790228409
11.500000000000	0.039528167447669	0.066732432830908
11.530000000000	0.043364333646199	0.065337331760253
11.560000000000	0.047112480599426	0.063575800485741
11.590000000000	0.050722502643172	0.061457718318470
11.620000000000	0.054146084648550	0.059001450779594
11.650000000000	0.057338328115461	0.056233420405618
11.680000000000	0.060259261212253	0.053187343506033
11.710000000000	0.062875161539636	0.049903165565000
11.740000000000	0.065159629675785	0.046425743411976
11.770000000000	0.067094364185000	0.042803335100878
11.800000000000	0.068669604013554	0.039085967917328
11.830000000000	0.069884221173502	0.035323760563833
11.860000000000	0.070745464354345	0.031565277069602
11.890000000000	0.071268371595446	0.027855987296149
11.920000000000	0.071474886417961	0.024236902268392
11.950000000000	0.071392725958900	0.020743442388345
11.980000000000	0.071054060915470	0.017404583519141
12.010000000000	0.070494074920736	0.014242310752332
12.040000000000	0.069749474970269	0.011271393289897
12.070000000000	0.068857024573089	0.0084994772329894
12.100000000000	0.067852167511032	0.0059274771137042
12.130000000000	0.066767802782866	0.0035502326112783
12.160000000000	0.065633261003402	0.0013573848221166
12.190000000000	0.064473519904511	-0.00066558269253880
12.220000000000	0.063308682439072	-0.0025361986628839
12.250000000000	0.062153726179054	-0.0042738175138039
12.280000000000	0.061018518092211	-0.0058984529867655
12.310000000000	0.059908075202371	-0.0074296889668840
12.340000000000	0.058823039817617	-0.0088857170089968
12.370000000000	0.057760328547214	-0.010282540218422
12.400000000000	0.056713907655725	-0.011633371636583
12.430000000000	0.055675643669713	-0.012948242856881
12.460000000000	0.054636177614952	-0.014233826021704
12.490000000000	0.053585773687110	-0.015493460370113
12.520000000000	0.052515098242221	-0.016727363789087
12.550000000000	0.051415892283880	-0.017933000931084
12.580000000000	0.050281509560516	-0.019105572819244
12.610000000000	0.049107302335139	-0.020238588731579
12.640000000000	0.047890847190387	-0.021324479631395
12.670000000000	0.046632013237169	-0.022355213421316
12.700000000000	0.045332884213614	-0.023322875617715
12.730000000000	0.043997553690246	-0.024220184314951
12.760000000000	0.042631818551434	-0.025040915076596
12.790000000000	0.041242799851876	-0.025780219128770
12.820000000000	0.039838521943818	-0.026434826383973
12.850000000000	0.038427480472539	-0.027003132845245
12.880000000000	0.037018227613812	-0.027485179325842
12.910000000000	0.035618999061341	-0.027882534737929
12.940000000000	0.034237402137190	-0.028198102121500
12.970000000000	0.032880178426298	-0.028435868882324
13.000000000000	0.031553047986415	-0.028600624287426
13.030000000000	0.030260635911603	-0.028697667151858
13.060000000000	0.029006476249598	-0.028732524977507
13.090000000000	0.027793083348272	-0.028710702805935
13.120000000000	0.026622076909198	-0.028637476030525
13.150000000000	0.025494344536154	-0.028517736735794
13.180000000000	0.024410224459377	-0.028355898172698
13.210000000000	0.023369691367391	-0.028155857111699
13.240000000000	0.022372529767588	-0.027921009382423
13.270000000000	0.021418481825362	-0.027654310198780
13.300000000000	0.020507359938776	-0.027358368099536
13.330000000000	0.019639118092094	-0.027035559642791
13.360000000000	0.018813879981976	-0.026688151428361
13.390000000000	0.018031925717811	-0.026318416548620
13.420000000000	0.017293642285313	-0.025928734072878
13.450000000000	0.016599445700892	-0.025521662474008
13.480000000000	0.015949684706216	-0.025099980782088
13.510000000000	0.015344536861167	-0.024666694442180
13.540000000000	0.014783907966468	-0.024225006097180
13.570000000000	0.014267344933356	-0.023778254558495
13.600000000000	0.013793970629696	-0.023329827842736
13.630000000000	0.013362447035055	-0.022883058161851
13.660000000000	0.012970970434019	-0.022441108032727
13.690000000000	0.012617299590213	-0.022006857157646
13.720000000000	0.012298815098632	-0.021582799419915
13.750000000000	0.012012605622214	-0.021170958300656
13.780000000000	0.011755574661730	-0.020772827366759
13.810000000000	0.011524560026179	-0.020389340361959
13.840000000000	0.011316457353705	-0.020020873036218
13.870000000000	0.011128338915756	-0.019667276369501
13.900000000000	0.010957559500072	-0.019327938478544
13.930000000000	0.010801842340650	-0.019001870416221
13.960000000000	0.010659339731070	-0.018687809430156
13.990000000000	0.010528664974978	-0.018384332148227
14.020000000000	0.010408894526980	-0.018089969665985
14.050000000000	0.010299541384882	-0.017803316638239
14.080000000000	0.010200502842761	-0.017523127190658
14.110000000000	0.010111987455420	-0.017248391690010
14.140000000000	0.010034427379164	-0.016978390031854
14.170000000000	0.0099683830596347	-0.016712718984161
14.200000000000	0.0099144474943640	-0.016451293113058
14.230000000000	0.0098731570086376	-0.016194320759013
14.260000000000	0.0098449146921171	-0.015942258284400
14.290000000000	0.0098299314306054	-0.015695747252917
14.320000000000	0.0098281879409460	-0.015455540232779
14.350000000000	0.0098394195052075	-0.015222421478842
14.380000000000	0.0098631233395890	-0.014997128821604
14.410000000000	0.0098985868584950	-0.014780282689145
14.440000000000	0.0099449336273553	-0.014572327362733
14.470000000000	0.010001182640558	-0.014373488399113
14.500000000000	0.010066315786895	-0.014183748746300
14.530000000000	0.010139348015454	-0.014002844552436
14.560000000000	0.010219394797062	-0.013830280140894
14.590000000000	0.010305731963732	-0.013665360215712
14.620000000000	0.010397843844913	-0.013507236172258
14.650000000000	0.010495456723641	-0.013354962499880
14.680000000000	0.010598555909969	-0.013207558730555
14.710000000000	0.010707386066001	-0.013064072234821
14.740000000000	0.010822435709053	-0.012923637387186
14.770000000000	0.010944407967380	-0.012785527182629
14.800000000000	0.011074180582508	-0.012649194223396
14.830000000000	0.011212758781127	-0.012514299030972
14.860000000000	0.011361224940665	-0.012380724779700
14.890000000000	0.011520688937008	-0.012248578698637
14.920000000000	0.011692242708299	-0.012118181452866
14.950000000000	0.011876921938537	-0.011990046710830
14.980000000000	0.012075676922657	-0.011864853763463
15.010000000000	0.012289353699767	-0.011743416438302
15.040000000000	0.012518685520349	-0.011626651626700
15.070000000000	0.012764293734714	-0.011515550518953
15.100000000000	0.013026696335773	-0.011411155149765
15.130000000000	0.013306321728987	-0.011314542145048
15.160000000000	0.013603524887844	-0.011226814698011
15.190000000000	0.013918602914704	-0.011149102865718
15.220000000000	0.014251807171111	-0.011082571349704
15.250000000000	0.014603349551899	-0.011028433086061
15.280000000000	0.014973401115093	-0.010987966293509
15.310000000000	0.015362082087827	-0.010962532169690
15.340000000000	0.015769443177062	-0.010953590225176
15.370000000000	0.016195439044850	-0.010962708318577
15.400000000000	0.016639895682047	-0.010991564799488
15.430000000000	0.017102474157532	-0.011041940751446
15.460000000000	0.017582633768863	-0.011115701107836
15.490000000000	0.018079597927185	-0.011214764327375
15.520000000000	0.018592326146006	-0.011341061289240
15.550000000000	0.019119495263295	-0.011496485023382
15.580000000000	0.019659492524321	-0.011682833752377
15.610000000000	0.020210422424277	-0.011901750418029
15.640000000000	0.020770128308270	-0.012154662342050
15.670000000000	0.021336228718417	-0.012442724885530
15.700000000000	0.021906167438561	-0.012766772906405
15.730000000000	0.022477275194237	-0.013127283468890
15.760000000000	0.023046840093152	-0.013524352655911
15.790000000000	0.023612183205149	-0.013957688516527
15.820000000000	0.024170735232044	-0.014426621202565
15.850000000000	0.024720110041110	-0.014930130281574
15.880000000000	0.025258170945531	-0.015466888132336
15.910000000000	0.025783086004353	-0.016035317311368
15.940000000000	0.026293369256411	-0.016633658895708
15.970000000000	0.026787905652505	-0.017260048120944
16.000000000000	0.027265958448127	-0.017912593191110
16.030000000000	0.027727158895385	-0.018589452968568
16.060000000000	0.028171479152652	-0.019288909367277
16.090000000000	0.028599190339303	-0.020009430661567
16.120000000000	0.029010808532057	-0.020749722555275
16.150000000000	0.029407032170910	-0.021508764686270
16.180000000000	0.029788674772980	-0.022285831209337
16.210000000000	0.030156597016252	-0.023080495137322
16.240000000000	0.030511642145380	-0.023892617153902
16.270000000000	0.030854578281524	-0.024722320570242
16.300000000000	0.031186050618358	-0.025569954917525
16.330000000000	0.031506545703608	-0.026436051294346
16.360000000000	0.031816369098370	-0.027321272983190
16.390000000000	0.032115636741156	-0.028226364992003
16.420000000000	0.032404279389081	-0.029152106061746
16.450000000000	0.032682058631627	-0.030099266323737
16.480000000000	0.032948592232409	-0.031068573223379
16.510000000000	0.033203386000229	-0.032060687595449
16.540000000000	0.033445869056176	-0.033076190937359
16.570000000000	0.033675429266554	-0.034115584043533
16.600000000000	0.033891445751830	-0.035179296301198
16.630000000000	0.034093315742749	-0.036267704166969
16.660000000000	0.034280473603679	-0.037381156699062
16.690000000000	0.034452400534726	-0.038520005554787
16.720000000000	0.034608624243627	-0.039684636606225
16.750000000000	0.034748708686132	-0.040875500291796
16.780000000000	0.034872234749002	-0.042093138004500
16.810000000000	0.034978773436375	-0.043338202199620
16.840000000000	0.035067853669077	-0.044611468452221
16.870000000000	0.035138927179861	-0.045913838363041
16.900000000000	0.035191333161650	-0.047246332947418
16.930000000000	0.035224265291799	-0.048610076889064
16.960000000000	0.035236743520101	-0.050006274742320
16.990000000000	0.035227592593278	-0.051436180771000
17.020000000000	0.035195428728536	-0.052901064575091
17.050000000000	0.035138655187984	-0.054402174945917
17.080000000000	0.035055466795894	-0.055940704486532
17.110000000000	0.034943862735845	-0.057517757432372
17.140000000000	0.034801666317983	-0.059134322817818
17.170000000000	0.034626549865908	-0.060791254680803
17.200000000000	0.034416062477573	-0.062489260415570
17.230000000000	0.034167658193462	-0.064228897717759
17.260000000000	0.033878722073537	-0.066010579866219
17.290000000000	0.033546591843030	-0.067834588404443
17.320000000000	0.033168573103768	-0.069701091671487
17.350000000000	0.032741946596524	-0.071610167132351
17.380000000000	0.032263966604987	-0.073561825107049
17.410000000000	0.031731850268761	-0.075556031320888
17.440000000000	0.031142758272608	-0.077592725707984
17.470000000000	0.030493768051576	-0.079671835094312
17.500000000000	0.029781841249198	-0.081793277751159
17.530000000000	0.029003787646714	-0.083956958318212
17.560000000000	0.028156228112043	-0.086162752211239
17.590000000000	0.027235559276186	-0.088410479308817
17.620000000000	0.026237922621790	-0.090699867408357
17.650000000000	0.025159180467150	-0.093030506605563
17.680000000000	0.023994900964570	-0.095401796338290
17.710000000000	0.022740353731438	-0.097812887306405
17.740000000000	0.021390517131701	-0.10026262080310
17.770000000000	0.019940097566802	-0.10274946815042
17.800000000000	0.018383560464436	-0.10527147291496
17.830000000000	0.016715172016211	-0.10782619839259
17.860000000000	0.014929050154223	-0.11041068251070
17.890000000000	0.013019222807947	-0.11302140182876
17.920000000000	0.010979691174675	-0.11565424575791
17.950000000000	0.0088044955865582	-0.11830450150923
17.980000000000	0.0064877815710948	-0.12096684966046
18.010000000000	0.0040238638743217	-0.12363536964649
18.040000000000	0.0014072865303605	-0.12630355396889
18.070000000000	-0.0013671225086425	-0.12896432951735
18.100000000000	-0.0043042031555803	-0.13161008412777
18.130000000000	-0.0074084218017294	-0.13423269638068
18.160000000000	-0.010683836619021	-0.13682356667688
18.190000000000	-0.014134068888794	-0.13937364780543
18.220000000000	-0.017762279247899	-0.14187347352777
18.250000000000	-0.021571147400954	-0.14431318411382
18.280000000000	-0.025562853632846	-0.14668254824946
18.310000000000	-0.029739060380890	-0.14897098125361
18.340000000000	-0.034100892194072	-0.15116756005716
18.370000000000	-0.038648912610032	-0.15326103587028
18.400000000000	-0.043383096801790	-0.15523984586283
18.430000000000	-0.048302799260626	-0.15709212547981
18.460000000000	-0.053406716258064	-0.15880572318798
18.490000000000	-0.058692843333635	-0.16036821949224
18.520000000000	-0.064158428550260	-0.16176695196865
18.550000000000	-0.069799922711198	-0.16298904784487
18.580000000000	-0.075612928111171	-0.16402146533412
18.610000000000	-0.081592147674830	-0.16485104452117
18.640000000000	-0.087731336501567	-0.16546456813679
18.670000000000	-0.094023257878284	-0.16584883207371
18.700000000000	-0.10045964574217	-0.16599072502515
18.730000000000	-0.10703117538309	-0.16587731619793
18.760000000000	-0.11372744388735	-0.16549594969223
18.790000000000	-0.12053696146458	-0.16483434387118
18.820000000000	-0.12744715439589	-0.16388069387836
18.850000000000	-0.13444437992310	-0.16262377540567
18.880000000000	-0.14151395299744	-0.16105304786439
18.910000000000	-0.14864018444675	-0.15915875525830
18.940000000000	-0.15580642982807	-0.15693202327995
18.970000000000	-0.16299514802224	-0.15436495142835
19.000000000000	-0.17018796850937	-0.15145069924962
19.030000000000	-0.17736576623953	-0.14818356610521
19.060000000000	-0.18450874307486	-0.14455906414759
19.090000000000	-0.19159651491428	-0.14057398440761
19.120000000000	-0.19860820379934	-0.13622645605206
19.150000000000	-0.20552253451572	-0.13151599894341
19.180000000000	-0.21231793542191	-0.12644356962114
19.210000000000	-0.21897264342883	-0.12101160072977
19.240000000000	-0.22546481319574	-0.11522403375418
19.270000000000	-0.23177263067858	-0.10908634470556
19.300000000000	-0.23787443115257	-0.10260556215678
19.330000000000	-0.24374882172333	-0.095790276779292
19.360000000000	-0.24937480814160	-0.088650641315863
19.390000000000	-0.25473192545450	-0.081198359760800
19.420000000000	-0.25980037167843	-0.073446664437792
19.450000000000	-0.26456114328824	-0.065410279683805
19.480000000000	-0.26899617091456	-0.057105370978837
19.510000000000	-0.27308845325617	-0.048549478609679
19.540000000000	-0.27682218688202	-0.039761435316484
19.570000000000	-0.28018288934731	-0.030761267830622
19.600000000000	-0.28315751290825	-0.021570082748454
19.630000000000	-0.28573454611141	-0.012209937769686
19.660000000000	-0.28790410066779	-0.0027036999261769
19.690000000000	-0.28965798130459	0.0069251069999804
19.720000000000	-0.29098973671001	0.016652463159442
19.750000000000	-0.29189469023457	0.026454018297429
19.780000000000	-0.29236994965931	0.036305258988717
19.810000000000	-0.29241439605408	0.046181673910620
19.840000000000	-0.29202865248901	0.056058913657801
19.870000000000	-0.29121503408698	0.065912941816414
19.900000000000	-0.28997748156999	0.075720174396399
19.930000000000	-0.28832148101930	0.085457605254390
19.960000000000	-0.28625397299873	0.095102915797577
19.990000000000	-0.28378325445683	0.10463456800643
20.020000000000	-0.28091887690543	0.11403188060893
20.050000000000	-0.27767154426175	0.12327508903471
20.080000000000	-0.27405301344253	0.13234539052677
20.110000000000	-0.27007600032558	0.14122497644612
20.140000000000	-0.26575409307422	0.14989705432894
20.170000000000	-0.26110167408851	0.15834586261391
20.200000000000	-0.25613385104731	0.16655668112506
20.230000000000	-0.25086639668604	0.17451584035990
20.260000000000	-0.24531569616691	0.18221073239410
20.290000000000	-0.23949870019005	0.18962982578405
20.320000000000	-0.23343288141224	0.19676268625185
20.350000000000	-0.22713619132139	0.20360000420829
20.380000000000	-0.22062701448943	0.21013362935106
20.410000000000	-0.21392411711155	0.21635661171795
20.440000000000	-0.20704658693965	0.22226324772953
20.470000000000	-0.20001376212582	0.22784912897582
20.500000000000	-0.19284514708646	0.23311119083565
20.530000000000	-0.18556031424777	0.23804775750820
20.560000000000	-0.17817879139707	0.24265857971831
20.590000000000	-0.17071993529419	0.24694486125300
20.620000000000	-0.16320279313885	0.25090927060764
20.650000000000	-0.15564595439138	0.25455593436359
20.680000000000	-0.14806739625226	0.25789040947073
20.710000000000	-0.14048432677458	0.26091963234102
20.740000000000	-0.13291303007377	0.26365184353530
20.770000000000	-0.12536871838187	0.26609648780140
20.800000000000	-0.11786539575093	0.26826409024511
20.830000000000	-0.11041573803851	0.27016611043466
20.860000000000	-0.10303099341306	0.27181477720161
20.890000000000	-0.095720907019755	0.27322290775711
20.920000000000	-0.088493672676446	0.27440371545091
20.950000000000	-0.081355913564426	0.27537061102587
20.980000000000	-0.074312692884828	0.27613700254043
21.010000000000	-0.067367554416558	0.27671609923277
21.040000000000	-0.060522591886145	0.27712072448137
21.070000000000	-0.053778545090769	0.27736314268936
