#Parameters = {CPWG_cut=1.25; GND_len=30; GND_wid=5; Strip_wid=0.85; arr1_posx=10; clrGND=5; couplline_len1=0; couplline_len2=2; couplline_len3=1; couplline_pos=1.5; dip_len=3; dip_pos=3; dip_wid=0.4; dipext_len=2; feed_pos=0.3; gap=0.2; notch_len=2; patch_wid=2.6; sub_h=0.5; via_num=10}
#"Frequency / GHz"	"R1_0_0 [1] [Real/Imaginary Part] [Re]"	"R1_0_0 [1] [Real/Imaginary Part] [Im]"
#-------------------------------------------------------------------------------------------------
10.000000000000	0.014468754342873	0.0099676494087023
10.030000000000	0.015147728295583	0.0096613118567791
10.060000000000	0.015828814132111	0.0093161985084383
10.090000000000	0.016510938829080	0.0089318751670303
10.120000000000	0.017193170373056	0.0085074867610597
10.150000000000	0.017874524723392	0.0080416981106918
10.180000000000	0.018553759185521	0.0075327003508030
10.210000000000	0.019229172725915	0.0069782848674877
10.240000000000	0.019898433583733	0.0063759804708410
10.270000000000	0.020558452586355	0.0057232436584550
10.300000000000	0.021205316994370	0.0050176867182751
10.330000000000	0.021834294759214	0.0042573245169503
10.360000000000	0.022439913162020	0.0034408184688117
10.390000000000	0.023016109388611	0.0025676956082314
10.420000000000	0.023556444204986	0.0016385219803862
10.450000000000	0.024054364058951	0.00065501265887529
10.480000000000	0.024503492141296	-0.00037993461700643
10.510000000000	0.024897925614076	-0.0014622892595871
10.540000000000	0.025232514665283	-0.0025870214469062
10.570000000000	0.025503099454824	-0.0037483128675523
10.600000000000	0.025706683401282	-0.0049398312025019
10.630000000000	0.025841525491994	-0.0061550490504890
10.660000000000	0.025907140101500	-0.0073875834272439
10.690000000000	0.025904199767292	-0.0086315291206790
10.720000000000	0.025834343988072	-0.0098817583440134
10.750000000000	0.025699904806496	-0.011134160429336
10.780000000000	0.025503567122529	-0.012385798716767
10.810000000000	0.025247987785806	-0.013634967128852
10.840000000000	0.024935402033452	-0.014881135835347
10.870000000000	0.024567248377595	-0.016124783441233
10.900000000000	0.024143843345812	-0.017367121706413
10.930000000000	0.023664135439233	-0.018609727309517
10.960000000000	0.023125563368021	-0.019854102970142
10.990000000000	0.022524037291486	-0.021101196748922
11.020000000000	0.021854053822758	-0.022350913037404
11.050000000000	0.021108946476087	-0.023601651232875
11.080000000000	0.020281263651401	-0.024849908118840
11.110000000000	0.019363256828822	-0.026089977461301
11.140000000000	0.018347453051840	-0.027313775383364
11.170000000000	0.017227278635007	-0.028510812968986
11.200000000000	0.015997695874748	-0.029668328700399
11.230000000000	0.014655811777957	-0.030771583311723
11.260000000000	0.013201417702750	-0.031804309093930
11.290000000000	0.011637421402781	-0.032749295311781
11.320000000000	0.0099701381710169	-0.033589081889792
11.350000000000	0.0082094153026581	-0.034306725541855
11.380000000000	0.0063685734917261	-0.034886596615219
11.410000000000	0.0044641594627257	-0.035315161519717
11.440000000000	0.0025155154456701	-0.035581704981841
11.470000000000	0.00054418231000511	-0.035678948584548
11.500000000000	-0.0014268364392556	-0.035603527025006
11.530000000000	-0.0033739137030616	-0.035356290960680
11.560000000000	-0.0052736979400838	-0.034942414773956
11.590000000000	-0.0071040251906951	-0.034371298488854
11.620000000000	-0.0088447952275794	-0.033656264747549
11.650000000000	-0.010478764489739	-0.032814063476581
11.680000000000	-0.011992212689980	-0.031864207917068
11.710000000000	-0.013375446791518	-0.030828175379054
11.740000000000	-0.014623115006362	-0.029728513815057
11.770000000000	-0.015734314022626	-0.028587900626060
11.800000000000	-0.016712484169314	-0.027428202704331
11.830000000000	-0.017565098971721	-0.026269586444815
11.860000000000	-0.018303166827066	-0.025129723364464
11.890000000000	-0.018940572665304	-0.024023131275523
11.920000000000	-0.019493295862340	-0.022960683042135
11.950000000000	-0.019978546866923	-0.021949305318479
11.980000000000	-0.020413868659219	-0.020991878926827
12.010000000000	-0.020816250112136	-0.020087341347023
12.040000000000	-0.021201296580447	-0.019230980829573
12.070000000000	-0.021582498767810	-0.018414901556751
12.100000000000	-0.021970634439447	-0.017628630633534
12.130000000000	-0.022373329306116	-0.016859830961179
12.160000000000	-0.022794793945441	-0.016095079567889
12.190000000000	-0.023235743548821	-0.015320668931043
12.220000000000	-0.023693497202580	-0.014523389255960
12.250000000000	-0.024162243924723	-0.013691252456298
12.280000000000	-0.024633454318398	-0.012814123450920
12.310000000000	-0.025096409913561	-0.011884230973640
12.340000000000	-0.025538817377532	-0.010896537919141
12.370000000000	-0.025947471979625	-0.0098489597986212
12.400000000000	-0.026308934053064	-0.0087424286106658
12.430000000000	-0.026610183631495	-0.0075808078206596
12.460000000000	-0.026839221745755	-0.0063706717084894
12.490000000000	-0.026985591742568	-0.0051209686891862
12.520000000000	-0.027040800043666	-0.0038425930327791
12.550000000000	-0.026998622564364	-0.0025478925192149
12.580000000000	-0.026855290098021	-0.0012501408916030
12.610000000000	-0.026609552901992	3.6996437465009e-05
12.640000000000	-0.026262631085967	0.0012999769636098
12.670000000000	-0.025818062863625	0.0025258528223044
12.700000000000	-0.025281467024165	0.0037026809080610
12.730000000000	-0.024660238946483	0.0048198576562473
12.760000000000	-0.023963201049249	0.0058683701126705
12.790000000000	-0.023200228774676	0.0068409602152178
12.820000000000	-0.022381872159263	0.0077322041340316
12.850000000000	-0.021518990940671	0.0085385127891017
12.880000000000	-0.020622418229438	0.0092580630818854
12.910000000000	-0.019702664313324	0.0098906718125183
12.940000000000	-0.018769668447186	0.010437625657884
12.970000000000	-0.017832602787957	0.010901480986082
13.000000000000	-0.016899729208601	0.011285846775432
13.030000000000	-0.015978306767565	0.011595162641615
13.060000000000	-0.015074545266103	0.011834482144442
13.090000000000	-0.014193598678071	0.012009269356493
13.120000000000	-0.013339591305819	0.012125214343135
13.150000000000	-0.012515669264137	0.012188070926888
13.180000000000	-0.011724070234275	0.012203518060041
13.210000000000	-0.010966205236418	0.012177044439719
13.240000000000	-0.010242747292089	0.012113854754163
13.270000000000	-0.0095537231287758	0.012018795183749
13.300000000000	-0.0088986053641352	0.011896295482655
13.330000000000	-0.0082764037608479	0.011750325082570
13.360000000000	-0.0076857550590451	0.011584361099591
13.390000000000	-0.0071250115005071	0.011401366778077
13.420000000000	-0.0065923284268057	0.011203779648503
13.450000000000	-0.0060857512710544	0.010993509389895
13.480000000000	-0.0056033019149999	0.010771945964184
13.510000000000	-0.0051430638242153	0.010539978945484
13.540000000000	-0.0047032646991109	0.010298029047923
13.570000000000	-0.0042823546932634	0.010046092640886
13.600000000000	-0.0038790776572465	0.0097837995451679
13.630000000000	-0.0034925324584465	0.0095104836741560
13.660000000000	-0.0031222212777087	0.0092252651943950
13.690000000000	-0.0027680819372601	0.0089271419221534
13.720000000000	-0.0024305017849843	0.0086150867491462
13.750000000000	-0.0021103114289518	0.0082881471031730
13.780000000000	-0.0018087576333883	0.0079455418898499
13.810000000000	-0.0015274558770406	0.0075867511025993
13.840000000000	-0.0012683243417584	0.0072115933765133
13.870000000000	-0.0010335023369078	0.0068202872140291
13.900000000000	-0.00082525726648601	0.0064134924106099
13.930000000000	-0.00064588511138573	0.0059923293095133
13.960000000000	-0.00049760994714702	0.0055583748413468
13.990000000000	-0.00038248819024168	0.0051136357600776
14.020000000000	-0.00030232303575983	0.0046605009625317
14.050000000000	-0.00025859392104972	0.0042016761589197
14.080000000000	-0.00025240486067248	0.0037401053383186
14.110000000000	-0.00028445421499567	0.0032788843503224
14.140000000000	-0.00035502696942812	0.0028211724293468
14.170000000000	-0.00046400902265853	0.0023701075766080
14.200000000000	-0.00061092142796055	0.0019287313738964
14.230000000000	-0.00079497111871843	0.0014999280534265
14.260000000000	-0.0010151134850496	0.0010863815414403
14.290000000000	-0.0012701213415545	0.00069055280982938
14.320000000000	-0.0015586544004761	0.00031467831118833
14.350000000000	-0.0018793233731963	-3.9211346519516e-05
14.380000000000	-0.0022307432667070	-0.00036925488936317
14.410000000000	-0.0026115712883481	-0.00067370981984865
14.440000000000	-0.0030205259596131	-0.00095089270995355
14.470000000000	-0.0034563854808360	-0.0011991159935727
14.500000000000	-0.0039179649775044	-0.0014166272467632
14.530000000000	-0.0044040738799893	-0.0016015568489984
14.560000000000	-0.0049134562245351	-0.0017518793975960
14.590000000000	-0.0054447180047752	-0.0018653933406376
14.620000000000	-0.0059962467558137	-0.0019397220686596
14.650000000000	-0.0065661292453198	-0.0019723382519741
14.680000000000	-0.0071520734337437	-0.0019606116334250
14.710000000000	-0.0077513407342800	-0.0019018788974002
14.740000000000	-0.0083606940686145	-0.0017935327451383
14.770000000000	-0.0089763663213134	-0.0016331260142222
14.800000000000	-0.0095940526128493	-0.0014184856702342
14.830000000000	-0.010208928426226	-0.0011478308318043
14.860000000000	-0.010815694133923	-0.00081988870130745
14.890000000000	-0.011408644983232	-0.00043400236874341
14.920000000000	-0.011981764207577	9.7750852001006e-06
14.950000000000	-0.012528835726684	0.00051060498515013
14.980000000000	-0.013043571949373	0.0010668097276994
15.010000000000	-0.013519751547646	0.0016758442935192
15.040000000000	-0.013951361753206	0.0023342939013730
15.070000000000	-0.014332739736270	0.0030378978295257
15.100000000000	-0.014658707936467	0.0037815982491561
15.130000000000	-0.014924698781321	0.0045596118937655
15.160000000000	-0.015126864988238	0.0053655215811016
15.190000000000	-0.015262172530326	0.0061923840422897
15.220000000000	-0.015328474280424	0.0070328502072676
15.250000000000	-0.015324563260121	0.0078792940356846
15.280000000000	-0.015250205248895	0.0087239461385065
15.310000000000	-0.015106151203642	0.0095590287630016
15.340000000000	-0.014894130468953	0.010376889157640
15.370000000000	-0.014616826110109	0.011170128834403
15.400000000000	-0.014277833879417	0.011931726745947
15.430000000000	-0.013881606354560	0.012655154842755
15.460000000000	-0.013433383701348	0.013334484830917
15.490000000000	-0.012939112358333	0.013964485189472
15.520000000000	-0.012405352767031	0.014540707618971
15.550000000000	-0.011839177127805	0.015059562088791
15.580000000000	-0.011248058090185	0.015518379554013
15.610000000000	-0.010639749318879	0.015915461260397
15.640000000000	-0.010022159030180	0.016250113393852
15.670000000000	-0.0094032178685253	0.016522665708097
15.700000000000	-0.0087907428735775	0.016734472728687
15.730000000000	-0.0081922997426163	0.016887896223949
15.760000000000	-0.0076150660767914	0.016986267883073
15.790000000000	-0.0070656987594146	0.017033831562568
15.820000000000	-0.0065502089928068	0.017035665051265
15.850000000000	-0.0060738487616689	0.016997582039607
15.880000000000	-0.0056410125470811	0.016926015822252
15.910000000000	-0.0052551579498934	0.016827887160944
15.940000000000	-0.0049187484755462	0.016710459623174
15.970000000000	-0.0046332210835266	0.016581186521969
16.000000000000	-0.0043989802334259	0.016447554244185
16.030000000000	-0.0042154191054049	0.016316927205868
16.060000000000	-0.0040809674930957	0.016196399862764
16.090000000000	-0.0039931646326612	0.016092661097527
16.120000000000	-0.0039487540228291	0.016011875888827
16.150000000000	-0.0039437961899962	0.015959588449999
16.180000000000	-0.0039737944390516	0.015940650037461
16.210000000000	-0.0040338279736578	0.015959173424682
16.240000000000	-0.0041186864228574	0.016018514686469
16.270000000000	-0.0042229998073484	0.016121281524816
16.300000000000	-0.0043413583283447	0.016269365982511
16.330000000000	-0.0044684170496333	0.016463998125871
16.360000000000	-0.0045989815298075	0.016705816218746
16.390000000000	-0.0047280716854239	0.016994948128868
16.420000000000	-0.0048509625478509	0.017331098258949
16.450000000000	-0.0049632020255055	0.017713634209913
16.480000000000	-0.0050606072020570	0.018141667668348
16.510000000000	-0.0051392419944691	0.018614124644487
16.540000000000	-0.0051953800755611	0.019129801125686
16.570000000000	-0.0052254577621212	0.019687401386797
16.600000000000	-0.0052260220300807	0.020285557529244
16.630000000000	-0.0051936789156193	0.020922830210836
16.660000000000	-0.0051250472945246	0.021597691880122
16.690000000000	-0.0050167224271560	0.022308495048148
16.720000000000	-0.0048652527629219	0.023053429132797
16.750000000000	-0.0046671323867027	0.023830470129775
16.780000000000	-0.0044188102457366	0.024637327754488
16.810000000000	-0.0041167160132405	0.025471394740713
16.840000000000	-0.0037573012199099	0.026329702681496
16.870000000000	-0.0033370932058400	0.027208888187363
16.900000000000	-0.0028527585899723	0.028105172271740
16.930000000000	-0.0023011723798562	0.029014354827329
16.960000000000	-0.0016794885863956	0.029931824916018
16.990000000000	-0.00098520827590646	0.030852586450884
17.020000000000	-0.00021624136890936	0.031771297792046
17.050000000000	0.00062904085909783	0.032682322890108
17.080000000000	0.0015517647666655	0.033579790957964
17.110000000000	0.0025525260342035	0.034457661279642
17.140000000000	0.0036313742335989	0.035309789695624
17.170000000000	0.0047878094823656	0.036129993533975
17.200000000000	0.0060207895341992	0.036912112256987
17.230000000000	0.0073287450082035	0.037650061812452
17.260000000000	0.0087096000645270	0.038337881547488
17.290000000000	0.010160795726337	0.038969773478833
17.320000000000	0.011679313233326	0.039540134628993
17.350000000000	0.013261695271329	0.040043583946281
17.380000000000	0.014904063612619	0.040474985951691
17.410000000000	0.016602132558132	0.040829473634784
17.440000000000	0.018351218516520	0.041102473213759
17.470000000000	0.020146246996960	0.041289733165067
17.500000000000	0.021981759142521	0.041387359425551
17.530000000000	0.023851920604101	0.041391857910824
17.560000000000	0.025750535979643	0.041300184536669
17.590000000000	0.027671072167230	0.041109801853914
17.620000000000	0.029606693774928	0.040818740302364
17.650000000000	0.031550313193398	0.040425661052891
17.680000000000	0.033494657095139	0.039929916533332
17.710000000000	0.035432350028955	0.039331604108336
17.740000000000	0.037356014504854	0.038631608074029
17.770000000000	0.039258385605330	0.037831625180448
17.800000000000	0.041132436816656	0.036934169326793
17.830000000000	0.042971512554033	0.035942551875849
17.860000000000	0.044769461857132	0.034860835164781
17.890000000000	0.046520767044666	0.033693758183479
17.920000000000	0.048220660804366	0.032446634960120
17.950000000000	0.049865225298777	0.031125227831793
17.980000000000	0.051451467398589	0.029735599372798
18.010000000000	0.052977365093711	0.028283948191289
18.040000000000	0.054441881427958	0.026776434981169
18.070000000000	0.055844943878654	0.025219006042027
18.100000000000	0.057187388859120	0.023617221889797
18.130000000000	0.058470872845853	0.021976098537628
18.160000000000	0.059697753403209	0.020299968524364
18.190000000000	0.060870944978021	0.018592367833844
18.220000000000	0.061993755657487	0.016855953538996
18.250000000000	0.063069712036802	0.015092455404795
18.280000000000	0.064102379864851	0.013302662898372
18.310000000000	0.065095188193203	0.011486447201460
18.340000000000	0.066051264344756	0.0096428160230439
18.370000000000	0.066973286175423	0.0077699973877508
18.400000000000	0.067863356887697	0.0058655472344115
18.430000000000	0.068722906156940	0.0039264746851107
18.460000000000	0.069552619657806	0.0019493782968994
18.490000000000	0.070352397348476	-6.9413485993975e-05
18.520000000000	0.071121339206644	-0.0021337041072093
18.550000000000	0.071857755629004	-0.0042472985628792
18.580000000000	0.072559198506588	-0.0064138855087775
18.610000000000	0.073222508150068	-0.0086369350012573
18.640000000000	0.073843870813196	-0.010919613558300
18.670000000000	0.074418881567531	-0.013264716696877
18.700000000000	0.074942607704173	-0.015674617665963
18.730000000000	0.075409648632522	-0.018151229860517
18.760000000000	0.075814189339169	-0.020695979463156
18.790000000000	0.076150045765800	-0.023309784285681
18.820000000000	0.076410701853363	-0.025993034611632
18.850000000000	0.076589339363813	-0.028745572081064
18.880000000000	0.076678862816533	-0.031566663284854
18.910000000000	0.076671922861722	-0.034454965692647
18.940000000000	0.076560942074538	-0.037408484744515
18.970000000000	0.076338147434490	-0.040424522290483
19.000000000000	0.075995613627616	-0.043499617951071
19.030000000000	0.075525320779778	-0.046629486279972
19.060000000000	0.074919229335469	-0.049808953726650
19.090000000000	0.074169373604282	-0.053031900226526
19.120000000000	0.073267974097256	-0.056291210715752
19.150000000000	0.072207567275233	-0.059578741930640
19.180000000000	0.070981149847416	-0.062885309494107
19.210000000000	0.069582333406696	-0.066200699531366
19.240000000000	0.068005504075701	-0.069513707944146
19.270000000000	0.066245981053379	-0.072812209084358
19.300000000000	0.064300167560895	-0.076083254003580
19.330000000000	0.062165687722852	-0.079313196827540
19.360000000000	0.059841503387783	-0.082487846233980
19.390000000000	0.057328005760341	-0.085592637613503
19.420000000000	0.054627077925295	-0.088612820369237
19.450000000000	0.051742125803269	-0.091533654044810
19.480000000000	0.048678076683178	-0.094340606616740
19.510000000000	0.045441346108159	-0.097019548370755
19.540000000000	0.042039775430079	-0.099556935292273
19.570000000000	0.038482543678444	-0.10193997679655
19.600000000000	0.034780058415345	-0.10415678383136
19.630000000000	0.030943830894567	-0.10619649480745
19.660000000000	0.026986341065802	-0.10804937833482
19.690000000000	0.022920897752778	-0.10970691324395
19.720000000000	0.018761498710671	-0.11116184772812
19.750000000000	0.014522694289951	-0.11240824054524
19.780000000000	0.010219457186846	-0.11344148797367
19.810000000000	0.0058670593538472	-0.11425834056124
19.840000000000	0.0014809557007554	-0.11485691360836
19.870000000000	-0.0029233271329024	-0.11523669478763
19.900000000000	-0.0073302997851363	-0.11539855136385
19.930000000000	-0.011724620612894	-0.11534473821250
19.960000000000	-0.016091211609962	-0.11507890634477
19.990000000000	-0.020415383759232	-0.11460611005636
20.020000000000	-0.024682975199320	-0.11393280926453
20.050000000000	-0.028880504531820	-0.11306686222165
20.080000000000	-0.032995340121345	-0.11201750272881
20.110000000000	-0.037015884437276	-0.11079529533341
20.140000000000	-0.040931770474445	-0.10941206187017
20.170000000000	-0.044734065212836	-0.10788077314878
20.200000000000	-0.048415473088839	-0.10621540062033
20.230000000000	-0.051970530709908	-0.10443072444096
20.260000000000	-0.055395782698229	-0.10254209642852
20.290000000000	-0.058689927725184	-0.10056515887109
20.320000000000	-0.061853923595809	-0.098515522857068
20.350000000000	-0.064891040722747	-0.096408412596249
20.380000000000	-0.067806854512301	-0.094258284914146
20.410000000000	-0.070609169046109	-0.092078435552977
20.440000000000	-0.073307866911869	-0.089880605933621
20.470000000000	-0.075914683005444	-0.087674605477133
20.500000000000	-0.078442903450139	-0.085467965334109
20.530000000000	-0.080906994285989	-0.083265639345972
20.560000000000	-0.083322168085213	-0.081069767227909
20.590000000000	-0.085703899957299	-0.078879513328791
20.620000000000	-0.088067407332661	-0.076690991945592
20.650000000000	-0.090427110289297	-0.074497287148215
20.680000000000	-0.092796090871959	-0.072288571543158
20.710000000000	-0.095185570743714	-0.070052324538304
20.740000000000	-0.097604426543270	-0.067773646654496
20.770000000000	-0.10005876148163	-0.065435662459230
20.800000000000	-0.10255155002817	-0.063020000969604
20.830000000000	-0.10508237008344	-0.060507339067927
20.860000000000	-0.10764723392755	-0.057877990754172
