#Parameters = {CPWG_cut=1.25; GND_len=30; GND_wid=5; Strip_wid=0.85; arr1_posx=10; clrGND=5; couplline_len1=0; couplline_len2=2; couplline_len3=1; couplline_pos=1.5; dip_len=3; dip_pos=3; dip_wid=0.4; dipext_len=2; feed_pos=0.3; gap=0.2; notch_len=2; patch_wid=2.6; sub_h=0.5; via_num=10}
#"Frequency / GHz"	"R1_5_6 [1] [Real/Imaginary Part] [Re]"	"R1_5_6 [1] [Real/Imaginary Part] [Im]"
#-------------------------------------------------------------------------------------------------
10.000000000000	-0.012234675375124	0.033730068406651
10.030000000000	-0.011526365731439	0.034596452024660
10.060000000000	-0.010773466804501	0.035446357447887
10.090000000000	-0.0099784352131458	0.036277967071935
10.120000000000	-0.0091436080326069	0.037090246695968
10.150000000000	-0.0082709797833833	0.037882850085704
10.180000000000	-0.0073620175362782	0.038655963045977
10.210000000000	-0.0064175303227903	0.039410100260890
10.240000000000	-0.0054376047344217	0.040145872445302
10.270000000000	-0.0044216131732123	0.040863744297971
10.300000000000	-0.0033682950832599	0.041563805070170
10.330000000000	-0.0022759051237491	0.042245573099867
10.360000000000	-0.0011424161479945	0.042907853382768
10.390000000000	3.4240463503096e-05	0.043548663272470
10.420000000000	0.0012559186409378	0.044165235976439
10.450000000000	0.0025240096047610	0.044754105019993
10.480000000000	0.0038392265050104	0.045311265763839
10.510000000000	0.0052014447535377	0.045832402924698
10.540000000000	0.0066096175839819	0.046313166433359
10.570000000000	0.0080617810387426	0.046749472424303
10.600000000000	0.0095551557350712	0.047137802182697
10.630000000000	0.011086344860569	0.047475469876363
10.660000000000	0.012651619450494	0.047760830139490
10.690000000000	0.014247273728289	0.047993399161457
10.720000000000	0.015870025789954	0.048173867806876
10.750000000000	0.017517432799671	0.048303992216897
10.780000000000	0.019188285682980	0.048386355918227
10.810000000000	0.020882946484377	0.048424007155283
10.840000000000	0.022603592376702	0.048419985314717
10.870000000000	0.024354333871326	0.048376760216767
10.900000000000	0.026141180990350	0.048295616974014
10.930000000000	0.027971839741314	0.048176026368333
10.960000000000	0.029855331717380	0.048015045659123
10.990000000000	0.031801441412362	0.047806796928554
11.020000000000	0.033820008153259	0.047542069180423
11.050000000000	0.035920091604369	0.047208086322947
11.080000000000	0.038109050759196	0.046788475979801
11.110000000000	0.040391585418823	0.046263464098584
11.140000000000	0.042768795659760	0.045610308072363
11.170000000000	0.045237318163737	0.044803967241100
11.200000000000	0.047788598144008	0.043817995011351
11.230000000000	0.050408351799267	0.042625622322762
11.260000000000	0.053076266830697	0.041200988722936
11.290000000000	0.055765977877015	0.039520465778192
11.320000000000	0.058445340284207	0.037564008743895
11.350000000000	0.061077010149823	0.035316466994303
11.380000000000	0.063619321936394	0.032768782125441
11.410000000000	0.066027438102444	0.029919005125512
11.440000000000	0.068254729159713	0.026773070539475
11.470000000000	0.070254328313785	0.023345275870288
11.500000000000	0.071980793277864	0.019658428052782
11.530000000000	0.073391799716239	0.015743634989782
11.560000000000	0.074449786631284	0.011639737966641
11.590000000000	0.075123474179581	0.0073923992556362
11.620000000000	0.075389178957991	0.0030528773256071
11.650000000000	0.075231860545536	-0.0013234612660739
11.680000000000	0.074645845575415	-0.0056788299795932
11.710000000000	0.073635191168973	-0.0099548360953042
11.740000000000	0.072213667328359	-0.014094338844252
11.770000000000	0.070404356859274	-0.018043267771026
11.800000000000	0.068238890507232	-0.021752319016288
11.830000000000	0.065756353157894	-0.025178453402922
11.860000000000	0.063001913148511	-0.028286130463232
11.890000000000	0.060025240056455	-0.031048226260327
11.920000000000	0.056878786038745	-0.033446599239131
11.950000000000	0.053616011377323	-0.035472286443873
11.980000000000	0.050289636069630	-0.037125331219406
12.010000000000	0.046949996085150	-0.038414261904170
12.040000000000	0.043643575537586	-0.039355257990148
12.070000000000	0.040411774991632	-0.039971054836014
12.100000000000	0.037289962132675	-0.040289649493843
12.130000000000	0.034306834939250	-0.040342877966917
12.160000000000	0.031484110279913	-0.040164937907261
12.190000000000	0.028836533522579	-0.039790930286118
12.220000000000	0.026372188292063	-0.039255489077705
12.250000000000	0.024093070859367	-0.038591559871023
12.280000000000	0.021995881580627	-0.037829377156801
12.310000000000	0.020072976933117	-0.036995676583022
12.340000000000	0.018313420418399	-0.036113163602822
12.370000000000	0.016704069087140	-0.035200244580510
12.400000000000	0.015230634621109	-0.034271011500646
12.430000000000	0.013878663498046	-0.033335457808067
12.460000000000	0.012634389279158	-0.032399891348433
12.490000000000	0.011485420850684	-0.031467501479066
12.520000000000	0.010421242759190	-0.030539031590774
12.550000000000	0.0094335167807157	-0.029613505727849
12.580000000000	0.0085161867239327	-0.028688958707707
12.610000000000	0.0076654003989445	-0.027763122911383
12.640000000000	0.0068792729917212	-0.026834031345622
12.670000000000	0.0061575242089393	-0.025900505120451
12.700000000000	0.0055010271041379	-0.024962503486849
12.730000000000	0.0049113092523113	-0.024021325318945
12.760000000000	0.0043900468855235	-0.023079661672125
12.790000000000	0.0039385898994017	-0.022141509105659
12.820000000000	0.0035575506172578	-0.021211962208595
12.850000000000	0.0032464823190386	-0.020296910709881
12.880000000000	0.0030036653698721	-0.019402671332098
12.910000000000	0.0028260099386488	-0.018535586969122
12.940000000000	0.0027090754150695	-0.017701625805434
12.970000000000	0.0026471983181373	-0.016906010784992
13.000000000000	0.0026337132745845	-0.016152905661791
13.030000000000	0.0026612459639584	-0.015445178123724
13.060000000000	0.0027220530819437	-0.014784253663396
13.090000000000	0.0028083825264727	-0.014170066510921
13.120000000000	0.0029128271763661	-0.013601106590242
13.150000000000	0.0030286476827909	-0.013074554629717
13.180000000000	0.0031500433768670	-0.012586491702961
13.210000000000	0.0032723553573935	-0.012132164958676
13.240000000000	0.0033921916338237	-0.011706288365750
13.270000000000	0.0035074703952907	-0.011303356074018
13.300000000000	0.0036173835874314	-0.010917946464789
13.330000000000	0.0037222885654181	-0.010544997009221
13.360000000000	0.0038235402751895	-0.010180033430556
13.390000000000	0.0039232799012159	-0.0098193410564402
13.420000000000	0.0040241980166327	-0.0094600712703532
13.450000000000	0.0041292909003857	-0.0091002812194122
13.480000000000	0.0042416278786573	-0.0087389100055948
13.510000000000	0.0043641454422134	-0.0083756991078995
13.540000000000	0.0044994807153422	-0.0080110684422968
13.570000000000	0.0046498529032955	-0.0076459620320043
13.600000000000	0.0048169969653287	-0.0072816785937868
13.630000000000	0.0050021493081013	-0.0069197024072995
13.660000000000	0.0052060811170800	-0.0065615486834703
13.690000000000	0.0054291713528000	-0.0062086354339473
13.720000000000	0.0056715086868300	-0.0058621907911862
13.750000000000	0.0059330099160282	-0.0055232011174652
13.780000000000	0.0062135417639711	-0.0051924013820648
13.810000000000	0.0065130334565375	-0.0048703054968261
13.840000000000	0.0068315689590445	-0.0045572708810370
13.870000000000	0.0071694501230675	-0.0042535887364019
13.900000000000	0.0075272249882497	-0.0039595895520350
13.930000000000	0.0079056788522292	-0.0036757523558535
13.960000000000	0.0083057891741144	-0.0034028062302740
13.990000000000	0.0087286486303642	-0.0031418135835358
14.020000000000	0.0091753634377406	-0.0028942265039873
14.050000000000	0.0096469361814472	-0.0026619100488243
14.080000000000	0.010144143682582	-0.0024471293068616
14.110000000000	0.010667420822351	-0.0022525002718129
14.140000000000	0.011216760700805	-0.0020809077032187
14.170000000000	0.011791640108353	-0.0019353959821684
14.200000000000	0.012390977159148	-0.0018190412646330
14.230000000000	0.013013125262032	-0.0017348148199253
14.260000000000	0.013655904611590	-0.0016854481990032
14.290000000000	0.014316669314999	-0.0016733107581893
14.320000000000	0.014992405376725	-0.0017003090897151
14.350000000000	0.015679852272133	-0.0017678161697957
14.380000000000	0.016375638946709	-0.0018766356749836
14.410000000000	0.017076423923836	-0.0020270041321327
14.440000000000	0.017779028875280	-0.0022186305806500
14.470000000000	0.018480555523011	-0.0024507704747700
14.500000000000	0.019178477051540	-0.0027223278693511
14.530000000000	0.019870697208019	-0.0030319777226758
14.560000000000	0.020555572792501	-0.0033782985821172
14.590000000000	0.021231898093915	-0.0037599051101805
14.620000000000	0.021898852786380	-0.0041755699163443
14.650000000000	0.022555917637809	-0.0046243249783945
14.680000000000	0.023202764882394	-0.0051055344976502
14.710000000000	0.023839132082867	-0.0056189332123042
14.740000000000	0.024464689611287	-0.0061646268228651
14.770000000000	0.025078912415019	-0.0067430540624821
14.800000000000	0.025680966472510	-0.0073549128551033
14.830000000000	0.026269619306685	-0.0080010557287253
14.860000000000	0.026843182195319	-0.0086823619885393
14.890000000000	0.027399489430840	-0.0093995959359796
14.920000000000	0.027935917309708	-0.010153261518492
14.950000000000	0.028449442673136	-0.010943464137182
14.980000000000	0.028936737986416	-0.011769789908303
15.010000000000	0.029394297338789	-0.012631211509630
15.040000000000	0.029818585554895	-0.013526027937236
15.070000000000	0.030206200984139	-0.014451843190200
15.100000000000	0.030554041583923	-0.015405586263029
15.130000000000	0.030859463693353	-0.016383572051037
15.160000000000	0.031120423408771	-0.017381600062224
15.190000000000	0.031335591670632	-0.018395085370888
15.220000000000	0.031504435954225	-0.019419214211450
15.250000000000	0.031627263685837	-0.020449115129715
15.280000000000	0.031705225013610	-0.021480035773214
15.310000000000	0.031740275165473	-0.022507515254103
15.340000000000	0.031735099139904	-0.023527542547932
15.370000000000	0.031693003725755	-0.024536692541506
15.400000000000	0.031617783685787	-0.025532233012103
15.430000000000	0.031513570250668	-0.026512197873142
15.460000000000	0.031384670783254	-0.027475424299211
15.490000000000	0.031235408560898	-0.028421553676779
15.520000000000	0.031069971106255	-0.029350998548438
15.550000000000	0.030892274438521	-0.030264879675135
15.580000000000	0.030705849118175	-0.031164938905325
15.610000000000	0.030513752148800	-0.032053434618725
15.640000000000	0.030318506826488	-0.032933027052337
15.670000000000	0.030122070644089	-0.033806660806755
15.700000000000	0.029925829511139	-0.034677451302875
15.730000000000	0.029730614971083	-0.035548580981962
15.760000000000	0.029536739889157	-0.036423209716214
15.790000000000	0.029344047317375	-0.037304402345046
15.820000000000	0.029151966950265	-0.038195074609042
15.850000000000	0.028959573760121	-0.039097957154370
15.880000000000	0.028765644000622	-0.040015575851228
15.910000000000	0.028568704717487	-0.040950245516868
15.940000000000	0.028367074104316	-0.041904073336016
15.970000000000	0.028158891374651	-0.042878967875633
16.000000000000	0.027942136165550	-0.043876649608074
16.030000000000	0.027714638725143	-0.044898659263094
16.060000000000	0.027474083162624	-0.045946361069236
16.090000000000	0.027218006770936	-0.047020938936761
16.120000000000	0.026943798815596	-0.048123384776901
16.150000000000	0.026648702194845	-0.049254479335041
16.180000000000	0.026329821026556	-0.050414767027612
16.210000000000	0.025984136547640	-0.051604527211992
16.240000000000	0.025608532790223	-0.052823745000795
16.270000000000	0.025199832415030	-0.054072085096267
16.300000000000	0.024754841938124	-0.055348872135160
16.330000000000	0.024270404488561	-0.056653080698915
16.360000000000	0.023743457282666	-0.057983337488140
16.390000000000	0.023171090283119	-0.059337937241912
16.420000000000	0.022550602094763	-0.060714872881665
16.450000000000	0.021879549074553	-0.062111879172188
16.480000000000	0.021155783911783	-0.063526488021832
16.510000000000	0.020377480547482	-0.064956092492449
16.540000000000	0.019543143201495	-0.066398015748906
16.570000000000	0.018651598390274	-0.067849580623088
16.600000000000	0.017701970057737	-0.069308175248992
16.630000000000	0.016693639204668	-0.070771310367114
16.660000000000	0.015626190585489	-0.072236664391353
16.690000000000	0.014499350047401	-0.073702113144389
16.720000000000	0.013312916832360	-0.075165742236118
16.750000000000	0.012066695584478	-0.076625841301160
16.780000000000	0.010760432867602	-0.078080880628353
16.810000000000	0.0093937626921421	-0.079529472003547
16.840000000000	0.0079661648986299	-0.080970316744945
16.870000000000	0.0064769392973879	-0.082402144846004
16.900000000000	0.0049251972926446	-0.083823649780088
16.930000000000	0.0033098714165544	-0.085233423813143
16.960000000000	0.0016297418657470	-0.086629898592409
16.990000000000	-0.00011652212553238	-0.088011295336832
17.020000000000	-0.0019303093277676	-0.089375588183733
17.050000000000	-0.0038130060552163	-0.090720483207409
17.080000000000	-0.0057659327912363	-0.092043414401113
17.110000000000	-0.0077902826385889	-0.093341556601077
17.140000000000	-0.0098870661136418	-0.094611854033322
17.170000000000	-0.012057066234277	-0.095851061983044
17.200000000000	-0.014300806980051	-0.097055798114618
17.230000000000	-0.016618537100920	-0.098222599283058
17.260000000000	-0.019010230006776	-0.099347979327366
17.290000000000	-0.021475599184168	-0.10042848334780
17.320000000000	-0.024014127362124	-0.10146073433884
17.350000000000	-0.026625106583181	-0.10244146874476
17.380000000000	-0.029307685513438	-0.10336755846729
17.410000000000	-0.032060919810739	-0.10423601800377
17.440000000000	-0.034883821202704	-0.10504399663667
17.470000000000	-0.037775401117190	-0.10578875682763
17.500000000000	-0.040734705239189	-0.10646764109217
17.530000000000	-0.043760836194385	-0.10707803055226
17.560000000000	-0.046852962611317	-0.10761729900835
17.590000000000	-0.050010314003357	-0.10808276668839
17.620000000000	-0.053232162139366	-0.10847165779181
17.650000000000	-0.056517790735691	-0.10878106555701
17.680000000000	-0.059866456304441	-0.10900792787171
17.710000000000	-0.063277343749595	-0.10914901547677
17.740000000000	-0.066749520748331	-0.10920093366497
17.770000000000	-0.070281895050799	-0.10916013714299
17.800000000000	-0.073873178566009	-0.10902295650943
17.830000000000	-0.077521861493155	-0.10878563370826
17.860000000000	-0.081226198853064	-0.10844436293702
17.890000000000	-0.084984210645142	-0.10799533290134
17.920000000000	-0.088793695591508	-0.10743476606461
17.950000000000	-0.092652257134899	-0.10675895067134
17.980000000000	-0.096557339136771	-0.10596426182160
18.010000000000	-0.10050626767904	-0.10504716870847
18.040000000000	-0.10449629459649	-0.10400422624136
18.070000000000	-0.10852463792645	-0.10283205058026
18.100000000000	-0.11258851440142	-0.10152727950019
18.130000000000	-0.11668515944383	-0.10008651988241
18.160000000000	-0.12081183083238	-0.098506285878992
18.190000000000	-0.12496579325132	-0.096782932319506
18.220000000000	-0.12914428223267	-0.094912588637551
18.250000000000	-0.13334444746441	-0.092891098928867
18.280000000000	-0.13756327695447	-0.090713973677769
18.310000000000	-0.14179750499867	-0.088376358202190
18.340000000000	-0.14604350818821	-0.085873021998705
18.370000000000	-0.15029719470969	-0.083198371975958
18.400000000000	-0.15455389285837	-0.080346491132294
18.430000000000	-0.15880824494858	-0.077311202664244
18.460000000000	-0.16305411264081	-0.074086157901630
18.490000000000	-0.16728449912069	-0.070664944969555
18.520000000000	-0.17149149260176	-0.067041213788713
18.550000000000	-0.17566623435067	-0.063208812038866
18.580000000000	-0.17979891294409	-0.059161926100033
18.610000000000	-0.18387878487049	-0.054895220796832
18.640000000000	-0.18789422000715	-0.050403972017269
18.670000000000	-0.19183276905039	-0.045684186938246
18.700000000000	-0.19568124876371	-0.040732707614776
18.730000000000	-0.19942584002606	-0.035547294998909
18.760000000000	-0.20305219317396	-0.030126691946230
18.790000000000	-0.20654553507371	-0.024470665326788
18.820000000000	-0.20989077273415	-0.018580028862228
18.850000000000	-0.21307258904494	-0.012456649644538
18.880000000000	-0.21607552733728	-0.0061034423499870
18.910000000000	-0.21888406282410	0.00047564413865529
18.940000000000	-0.22148266047565	0.0072756427028214
18.970000000000	-0.22385582040369	0.014290581704293
19.000000000000	-0.22598811324064	0.021513492176539
19.030000000000	-0.22786420919398	0.028936405179448
19.060000000000	-0.22946890533193	0.036550337270338
19.090000000000	-0.23078715613998	0.044345263515297
19.120000000000	-0.23180411243496	0.052310079025721
19.150000000000	-0.23250517332377	0.060432551530249
19.180000000000	-0.23287605507267	0.068699268858578
19.210000000000	-0.23290287956826	0.077095586308459
19.240000000000	-0.23257228359143	0.085605579598105
19.270000000000	-0.23187154849928	0.094212009408111
19.300000000000	-0.23078874824388	0.10289630335783
19.330000000000	-0.22931291207866	0.11163856064413
19.360000000000	-0.22743419693834	0.12041758353495
19.390000000000	-0.22514406343541	0.12921093852838
19.420000000000	-0.22243544878121	0.13799504836066
19.450000000000	-0.21930292976732	0.14674531429386
19.480000000000	-0.21574286925351	0.15543626636946
19.510000000000	-0.21175354038319	0.16404173770921
19.540000000000	-0.20733522393355	0.17253505760612
19.570000000000	-0.20249027571699	0.18088925717985
19.600000000000	-0.19722316267015	0.18907728085073
19.630000000000	-0.19154046806497	0.19707219685995
19.660000000000	-0.18545086801265	0.20484740053490
19.690000000000	-0.17896508296826	0.21237680493589
19.720000000000	-0.17209580915679	0.21963501485349
19.750000000000	-0.16485763562979	0.22659748175065
19.780000000000	-0.15726695295392	0.23324063903279
19.810000000000	-0.14934185929863	0.23954201883775
19.840000000000	-0.14110206893592	0.24548035321628
19.870000000000	-0.13256882694269	0.25103566397893
19.900000000000	-0.12376483229213	0.25618934649081
19.930000000000	-0.11471416965762	0.26092425320268
19.960000000000	-0.10544224827546	0.26522478265264
19.990000000000	-0.095975744281462	0.26907697903405
20.020000000000	-0.086342541214785	0.27246864622731
20.050000000000	-0.076571662021603	0.27538947849932
20.080000000000	-0.066693185025466	0.27783120799491
20.110000000000	-0.056738136059510	0.27978776681730
20.140000000000	-0.046738349340175	0.28125545908742
20.170000000000	-0.036726290717049	0.28223313606166
20.200000000000	-0.026734838627213	0.28272236535593
20.230000000000	-0.016797020334249	0.28272758373696
20.260000000000	-0.0069457037196865	0.28225622194549
20.290000000000	0.0027867521410110	0.28131878971821
20.320000000000	0.012368881329140	0.27992890964293
20.350000000000	0.021770521120793	0.27810328973134
20.380000000000	0.030963235827642	0.27586162659002
20.410000000000	0.039920740402815	0.27322643373003
20.440000000000	0.048619308274619	0.27022279274471
20.470000000000	0.057038147149725	0.26687802863612
20.500000000000	0.065159726664311	0.26322131428413
20.530000000000	0.072970042784389	0.25928321271497
20.560000000000	0.080458805739210	0.25509516922136
20.590000000000	0.087619540934854	0.25068896831080
20.620000000000	0.094449595610559	0.24609617272948
20.650000000000	0.10095004779879	0.24134756328594
20.680000000000	0.10712551823075	0.23647259877841
20.710000000000	0.11298388997278	0.23149891496947
20.740000000000	0.11853594456200	0.22645188025592
20.770000000000	0.12379492701440	0.22135422351489
20.800000000000	0.12877605511328	0.21622574668038
20.830000000000	0.13349599068715	0.21108313107329
20.860000000000	0.13797229203833	0.20593984256218
20.890000000000	0.14222286721631	0.20080613648163
20.920000000000	0.14626544742865	0.19568915909898
20.950000000000	0.15011709858386	0.19059313851440
20.980000000000	0.15379378685172	0.18551965439931
21.010000000000	0.15731001133758	0.18046797309386
