#Parameters = {CPWG_cut=1.25; GND_len=30; GND_wid=5; Strip_wid=0.85; arr1_posx=10; clrGND=5; couplline_len1=0; couplline_len2=2; couplline_len3=1; couplline_pos=1.5; dip_len=3; dip_pos=3; dip_wid=0.4; dipext_len=2; feed_pos=0.3; gap=0.2; notch_len=2; patch_wid=2.6; sub_h=0.5; via_num=10}
#"Frequency / GHz"	"R1_3_1 [1] [Real/Imaginary Part] [Re]"	"R1_3_1 [1] [Real/Imaginary Part] [Im]"
#-------------------------------------------------------------------------------------------------
10.000000000000	-0.0087161539035971	0.0045297003844876
10.030000000000	-0.0086584465873915	0.0048246151798834
10.060000000000	-0.0085902463784901	0.0051224414614558
10.090000000000	-0.0085108373303871	0.0054230007691837
10.120000000000	-0.0084194282965363	0.0057259413431248
10.150000000000	-0.0083152022936097	0.0060307113244613
10.180000000000	-0.0081973729136830	0.0063365466328988
10.210000000000	-0.0080652434531436	0.0066424751109268
10.240000000000	-0.0079182641300698	0.0069473372727706
10.270000000000	-0.0077560828193178	0.0072498227090681
10.300000000000	-0.0075785851405431	0.0075485199746218
10.330000000000	-0.0073859204577798	0.0078419767176882
10.360000000000	-0.0071785113356032	0.0081287659745894
10.390000000000	-0.0069570451728802	0.0084075540143209
10.420000000000	-0.0067224480139798	0.0086771649133686
10.450000000000	-0.0064758418256240	0.0089366371853803
10.480000000000	-0.0062184877321046	0.0091852682724003
10.510000000000	-0.0059517187361544	0.0094226434885243
10.540000000000	-0.0056768662442296	0.0096486470362274
10.570000000000	-0.0053951852084440	0.0098634539165589
10.600000000000	-0.0051077828597318	0.010067502841952
10.630000000000	-0.0048155558286177	0.010261451544622
10.660000000000	-0.0045191399457631	0.010446117066009
10.690000000000	-0.0042188762211571	0.010622404632712
10.720000000000	-0.0039147954746771	0.010791229504345
10.750000000000	-0.0036066229029237	0.010953436668785
10.780000000000	-0.0032938025985421	0.011109723431016
10.810000000000	-0.0029755407732895	0.011260569786063
10.840000000000	-0.0026508652573827	0.011406180998982
10.870000000000	-0.0023186978300535	0.011546446070724
10.900000000000	-0.0019779351421001	0.011680914800132
10.930000000000	-0.0016275334666992	0.011808795025059
10.960000000000	-0.0012665922872335	0.011928970413410
10.990000000000	-0.00089443180790161	0.012040037954946
11.020000000000	-0.00051065984242121	0.012140363151884
11.050000000000	-0.00011522416823905	0.012228149888790
11.080000000000	0.00029155271676177	0.012301521137199
11.110000000000	0.00070895848769448	0.012358606060739
11.140000000000	0.0011358964816694	0.012397628759171
11.170000000000	0.0015709115905876	0.012416993834681
11.200000000000	0.0020122352641371	0.012415364174154
11.230000000000	0.0024578473228784	0.012391726795313
11.260000000000	0.0029055514211988	0.012345443267862
11.290000000000	0.0033530603261378	0.012276282048667
11.320000000000	0.0037980867176499	0.012184431011778
11.350000000000	0.0042384349825012	0.012070489456092
11.380000000000	0.0046720894682903	0.011935439882467
11.410000000000	0.0050972948748378	0.011780600798572
11.440000000000	0.0055126248660909	0.011607562690095
11.470000000000	0.0059170355576068	0.011418110055202
11.500000000000	0.0063099012381787	0.011214133008480
11.530000000000	0.0066910304818166	0.010997532403014
11.560000000000	0.0070606616602205	0.010770122685896
11.590000000000	0.0074194377393934	0.010533536792369
11.620000000000	0.0077683611034000	0.010289137302934
11.650000000000	0.0081087299635313	0.010037937847451
11.680000000000	0.0084420586567033	0.0097805383560344
11.710000000000	0.0087699847916285	0.0095170772465103
11.740000000000	0.0090941667481802	0.0092472030220727
11.770000000000	0.0094161754610618	0.0089700670513443
11.800000000000	0.0097373847132385	0.0086843385371823
11.830000000000	0.010058864319961	0.0083882418717255
11.860000000000	0.010381280595272	0.0080796157449553
11.890000000000	0.010704808356447	0.0077559925448467
11.920000000000	0.011029058436950	0.0074146957822149
11.950000000000	0.011353024247109	0.0070529525170546
11.980000000000	0.011675050349061	0.0066680170809567
12.010000000000	0.011992825308156	0.0062573018083468
12.040000000000	0.012303400261482	0.0058185100341124
12.070000000000	0.012603233725731	0.0053497663120031
12.100000000000	0.012888262177753	0.0048497386798713
12.130000000000	0.013153994914231	0.0043177478631721
12.160000000000	0.013395630670204	0.0037538585800253
12.190000000000	0.013608192492283	0.0031589485947682
12.220000000000	0.013786676466897	0.0025347518581963
12.250000000000	0.013926209143103	0.0018838729571182
12.280000000000	0.014022207907795	0.0012097711478254
12.310000000000	0.014070538208268	0.00051671343107426
12.340000000000	0.014067661405101	-0.00019030260655668
12.370000000000	0.014010767199023	-0.00090565416366663
12.400000000000	0.013897885017689	-0.0016232235218101
12.430000000000	0.013727969466744	-0.0023365488163725
12.460000000000	0.013500955923412	-0.0030389898183931
12.490000000000	0.013217783543727	-0.0037239024752456
12.520000000000	0.012880384316191	-0.0043848154370115
12.550000000000	0.012491638262167	-0.0050156015814926
12.580000000000	0.012055296385011	-0.0056106376671476
12.610000000000	0.011575874428397	-0.0061649456953866
12.640000000000	0.011058521841680	-0.0066743103384588
12.670000000000	0.010508871491875	-0.0071353678545379
12.700000000000	0.0099328765425173	-0.0075456632177948
12.730000000000	0.0093366414862358	-0.0079036736730031
12.760000000000	0.0087262545344627	-0.0082087985044173
12.790000000000	0.0081076284173842	-0.0084613164025129
12.820000000000	0.0074863561345356	-0.0086623133323582
12.850000000000	0.0068675873469101	-0.0088135851692977
12.880000000000	0.0062559299609970	-0.0089175204947825
12.910000000000	0.0056553800874154	-0.0089769697740921
12.940000000000	0.0050692820394481	-0.0089951076220665
12.970000000000	0.0045003184569427	-0.0089752949768655
13.000000000000	0.0039505290898294	-0.0089209477414600
13.030000000000	0.0034213553423851	-0.0088354178369564
13.060000000000	0.0029137064463953	-0.0087218916814528
13.090000000000	0.0024280421679718	-0.0085833099225156
13.120000000000	0.0019644663113420	-0.0084223108854702
13.150000000000	0.0015228249953295	-0.0082411987389255
13.180000000000	0.0011028037539676	-0.0080419359136638
13.210000000000	0.00070401793825363	-0.0078261579307418
13.240000000000	0.00032609163601012	-0.0075952075820389
13.270000000000	-3.1278673653732e-05	-0.0073501844322565
13.300000000000	-0.00036827832619730	-0.0070920049295472
13.330000000000	-0.00068494783636684	-0.0068214680565638
13.360000000000	-0.00098117540270309	-0.0065393214368390
13.390000000000	-0.0012567072798271	-0.0062463231226028
13.420000000000	-0.0015111736378156	-0.0059432948975591
13.450000000000	-0.0017441266314790	-0.0056311637810169
13.480000000000	-0.0019550867699462	-0.0053109894522270
13.510000000000	-0.0021435933412590	-0.0049839764496004
13.540000000000	-0.0023092546191915	-0.0046514711576015
13.570000000000	-0.0024517938502707	-0.0043149446942543
13.600000000000	-0.0025710875576852	-0.0039759637804839
13.630000000000	-0.0026671934574501	-0.0036361524464897
13.660000000000	-0.0027403661988422	-0.0032971479630352
13.690000000000	-0.0027910601445895	-0.0029605546484997
13.720000000000	-0.0028199194214065	-0.0026278991873334
13.750000000000	-0.0028277564246160	-0.0023005908139472
13.780000000000	-0.0028155207849346	-0.0019798891985828
13.810000000000	-0.0027842614455974	-0.0016668821650408
13.840000000000	-0.0027350849136215	-0.0013624745332697
13.870000000000	-0.0026691129175995	-0.0010673884794538
13.900000000000	-0.0025874426223781	-0.00078217491165605
13.930000000000	-0.0024911122333533	-0.00050723453702029
13.960000000000	-0.0023810743020878	-0.00024284660627069
13.990000000000	-0.0022581783669424	1.0797189646551e-05
14.020000000000	-0.0021231637842555	0.00025355649478691
14.050000000000	-0.0019766627900307	0.00048530663051557
14.080000000000	-0.0018192130428243	0.00070590624579745
14.110000000000	-0.0016512781954224	0.00091517065584914
14.140000000000	-0.0014732744774813	0.0011128527173869
14.170000000000	-0.0012856008830459	0.0012986324317724
14.200000000000	-0.0010886703703692	0.0014721157408613
14.230000000000	-0.00088293950501629	0.0016328422434018
14.260000000000	-0.00066893420243981	0.0017803008707977
14.290000000000	-0.00044726962906784	0.0019139519729899
14.320000000000	-0.00021866286401527	0.0020332538219298
14.350000000000	1.6062440793659e-05	0.0021376912727811
14.380000000000	0.00025597948989483	0.0022268042480920
14.410000000000	0.00050006929334777	0.0023002138283699
14.440000000000	0.00074723797876170	0.0023576440289469
14.470000000000	0.00099633883879510	0.0023989377887690
14.500000000000	0.0012461971686151	0.0024240662513096
14.530000000000	0.0014956358053935	0.0024331310325560
14.560000000000	0.0017434993233852	0.0024263597932043
14.590000000000	0.0019886750565266	0.0024040960092341
14.620000000000	0.0022301094944049	0.0023667843187388
14.650000000000	0.0024668190928814	0.0023149531733001
14.680000000000	0.0026978951138663	0.0022491967107549
14.710000000000	0.0029225027098934	0.0021701577779302
14.740000000000	0.0031398750463024	0.0020785138665777
14.770000000000	0.0033493037572371	0.0019749673977482
14.800000000000	0.0035501274176863	0.0018602413270682
14.830000000000	0.0037417199484541	0.0017350804848765
14.860000000000	0.0039234809326545	0.0016002584579968
14.890000000000	0.0040948297035901	0.0014565892153539
14.920000000000	0.0042552047719276	0.0013049421291330
14.950000000000	0.0044040697163332	0.0011462585941620
14.980000000000	0.0045409261000957	0.00098156814038530
15.010000000000	0.0046653333405404	0.00081200179542013
15.040000000000	0.0047769347984606	0.00063880050176694
15.070000000000	0.0048754887241556	0.00046331662721984
15.100000000000	0.0049609021461598	0.00028700701368666
15.130000000000	0.0050332653640110	0.00011141656152434
15.160000000000	0.0050928844439143	-6.1847995424687e-05
15.190000000000	0.0051403090404094	-0.00023115375245318
15.220000000000	0.0051763529886640	-0.00039488564063172
15.250000000000	0.0052021054265479	-0.00055149701025842
15.280000000000	0.0052189306943375	-0.00069956444965385
15.310000000000	0.0052284558907721	-0.00083784406696392
15.340000000000	0.0052325456943766	-0.00096532620899788
15.370000000000	0.0052332648380233	-0.0010812855358039
15.400000000000	0.0052328293982697	-0.0011853235194338
15.430000000000	0.0052335487748501	-0.0012774007820751
15.460000000000	0.0052377608397738	-0.0013578572101133
15.490000000000	0.0052477631875245	-0.0014274184418472
15.520000000000	0.0052657436865507	-0.0014871880827189
15.550000000000	0.0052937135993499	-0.0015386258015700
15.580000000000	0.0053334464001810	-0.0015835122503729
15.610000000000	0.0053864250865020	-0.0016239024750041
15.640000000000	0.0054538002769698	-0.0016620700978468
15.670000000000	0.0055363607513376	-0.0017004450147178
15.700000000000	0.0056345173608191	-0.0017415476304022
15.730000000000	0.0057483004720386	-0.0017879227437050
15.760000000000	0.0058773703558563	-0.0018420760831638
15.790000000000	0.0060210392444462	-0.0019064162010893
15.820000000000	0.0061783032005930	-0.0019832039817995
15.850000000000	0.0063478815080316	-0.0020745114457602
15.880000000000	0.0065282610252890	-0.0021821908785731
15.910000000000	0.0067177428596028	-0.0023078546304288
15.940000000000	0.0069144888104437	-0.0024528652665458
15.970000000000	0.0071165652893972	-0.0026183351481038
16.000000000000	0.0073219828186537	-0.0028051340258377
16.030000000000	0.0075287297088615	-0.0030139028653793
16.060000000000	0.0077347990770485	-0.0032450719140621
16.090000000000	0.0079382089421805	-0.0034988809705432
16.120000000000	0.0081370156855829	-0.0037753999260621
16.150000000000	0.0083293216456808	-0.0040745478926735
16.180000000000	0.0085132779978288	-0.0043961095925524
16.210000000000	0.0086870843261243	-0.0047397481190702
16.240000000000	0.0088489864115388	-0.0051050136556508
16.270000000000	0.0089972737374442	-0.0054913482118185
16.300000000000	0.0091302780589832	-0.0058980868684620
16.330000000000	0.0092463741162890	-0.0063244563820696
16.360000000000	0.0093439832212190	-0.0067695722537851
16.390000000000	0.0094215800468414	-0.0072324355061494
16.420000000000	0.0094777025352337	-0.0077119304213034
16.450000000000	0.0095109644489375	-0.0082068243829624
16.480000000000	0.0095200697583624	-0.0087157707444890
16.510000000000	0.0095038278094686	-0.0092373153395150
16.540000000000	0.0094611680732044	-0.0097699068891453
16.570000000000	0.0093911532510650	-0.010311911174253
16.600000000000	0.0092929896003277	-0.010861628467523
16.630000000000	0.0091660335386406	-0.011417313390820
16.660000000000	0.0090097938723189	-0.011977196107930
16.690000000000	0.0088239293403186	-0.012539503602841
16.720000000000	0.0086082415456517	-0.013102479743200
16.750000000000	0.0083626637248611	-0.013664402891655
16.780000000000	0.0080872461512799	-0.014223599998998
16.810000000000	0.0077821392494356	-0.014778456377919
16.840000000000	0.0074475756919439	-0.015327420692342
16.870000000000	0.0070838528398384	-0.015869005076508
16.900000000000	0.0066913168645619	-0.016401780688553
16.930000000000	0.0062703497562801	-0.016924369372594
16.960000000000	0.0058213601893879	-0.017435432420715
16.990000000000	0.0053447789009876	-0.017933657665244
17.020000000000	0.0048410588672344	-0.018417746272605
17.050000000000	0.0043106801658415	-0.018886400640973
17.080000000000	0.0037541590227671	-0.019338314722255
17.110000000000	0.0031720601886047	-0.019772167900954
17.140000000000	0.0025650115037607	-0.020186623283234
17.170000000000	0.0019337193139365	-0.020580330901331
17.200000000000	0.0012789833042926	-0.020951935949030
17.230000000000	0.00060170933903609	-0.021300091764188
17.260000000000	-9.7080978856006e-05	-0.021623476895686
17.290000000000	-0.00081624508614113	-0.021920815264359
17.320000000000	-0.0015545193269860	-0.022190898175526
17.350000000000	-0.0023105242975175	-0.022432606783785
17.380000000000	-0.0030827756647470	-0.022644933559733
17.410000000000	-0.0038697000708271	-0.022827001365898
17.440000000000	-0.0046696553806286	-0.022978078909148
17.470000000000	-0.0054809542379269	-0.023097591584975
17.500000000000	-0.0063018896845569	-0.023185127044214
17.530000000000	-0.0071307614821563	-0.023240435168908
17.560000000000	-0.0079659017639785	-0.023263422512256
17.590000000000	-0.0088056987326721	-0.023254141608671
17.620000000000	-0.0096486172985876	-0.023212775866748
17.650000000000	-0.010493215804743	-0.023139620997582
17.680000000000	-0.011338158285895	-0.023035064086523
17.710000000000	-0.012182222033672	-0.022899561479016
17.740000000000	-0.013024300559468	-0.022733616619380
17.770000000000	-0.013863402334981	-0.022537758862238
17.800000000000	-0.014698645923555	-0.022312524084255
17.830000000000	-0.015529252275896	-0.022058437679220
17.860000000000	-0.016354535040166	-0.021776000247005
17.890000000000	-0.017173889725739	-0.021465676013207
17.920000000000	-0.017986782466748	-0.021127883767527
17.950000000000	-0.018792738968400	-0.020762989908765
17.980000000000	-0.019591334004628	-0.020371303051433
18.010000000000	-0.020382181593537	-0.019953069595591
18.040000000000	-0.021164925733498	-0.019508469692255
18.070000000000	-0.021939231364030	-0.019037613148049
18.100000000000	-0.022704775046101	-0.018540534993369
18.130000000000	-0.023461234756101	-0.018017190669939
18.160000000000	-0.024208278170149	-0.017467451052581
18.190000000000	-0.024945548886598	-0.016891097779444
18.220000000000	-0.025672650192374	-0.016287819596887
18.250000000000	-0.026389126212398	-0.015657210603335
18.280000000000	-0.027094440572626	-0.014998771378411
18.310000000000	-0.027787953031727	-0.014311913993008
18.340000000000	-0.028468894865358	-0.013595971804241
18.370000000000	-0.029136344089923	-0.012850214746384
18.400000000000	-0.029789201859673	-0.012073870544018
18.430000000000	-0.030426171535627	-0.011266151914537
18.460000000000	-0.031045741986218	-0.010426289418540
18.490000000000	-0.031646176624759	-0.0095535691893418
18.520000000000	-0.032225509513721	-0.0086473743601141
18.550000000000	-0.032781549576172	-0.0077072286434201
18.580000000000	-0.033311893565796	-0.0067328402345790
18.610000000000	-0.033813947982762	-0.0057241440343000
18.640000000000	-0.034284959614319	-0.0046813401365849
18.670000000000	-0.034722053862140	-0.0036049266152535
18.700000000000	-0.035122279530990	-0.0024957248665294
18.730000000000	-0.035482658332191	-0.0013548961152887
18.760000000000	-0.035800237033630	-0.00018394814819275
18.790000000000	-0.036072139992382	0.0010152681313380
18.820000000000	-0.036295619754013	0.0022405721594079
18.850000000000	-0.036468103501840	0.0034894764400239
18.880000000000	-0.036587233385884	0.0047592172746312
18.910000000000	-0.036650899140199	0.0060467917692336
18.940000000000	-0.036657261883446	0.0073489990554326
18.970000000000	-0.036604768557662	0.0086624834596840
19.000000000000	-0.036492157054450	0.0099837773066531
19.030000000000	-0.036318452664070	0.011309341151939
19.060000000000	-0.036082957018656	0.012635599499112
19.090000000000	-0.035785231147432	0.013958970447007
19.120000000000	-0.035425074587070	0.015275888206704
19.150000000000	-0.035002502671138	0.016582817986840
19.180000000000	-0.034517724146698	0.017876263329113
19.210000000000	-0.033971121133399	0.019152766539503
19.240000000000	-0.033363233162669	0.020408903362822
19.270000000000	-0.032694746634870	0.021641273451805
19.300000000000	-0.031966490542989	0.022846488457677
19.330000000000	-0.031179438771805	0.024021159698206
19.360000000000	-0.030334718734558	0.025161887334258
19.390000000000	-0.029433625598157	0.026265252812143
19.420000000000	-0.028477640912920	0.027327816023574
19.450000000000	-0.027468454137328	0.028346118225831
19.480000000000	-0.026407985356354	0.029316691287740
19.510000000000	-0.025298407446560	0.030236073324167
19.540000000000	-0.024142166042517	0.031100830296394
19.570000000000	-0.022941995894970	0.031907582730031
19.600000000000	-0.021700932557371	0.032653036372641
19.630000000000	-0.020422318760114	0.033334015408445
19.660000000000	-0.019109805290062	0.033947496784370
19.690000000000	-0.017767346642186	0.034490644284964
19.720000000000	-0.016399192105920	0.034960841214494
19.750000000000	-0.015009873250872	0.035355720880995
19.780000000000	-0.013604188952048	0.035673194496111
19.810000000000	-0.012187189122014	0.035911476564148
19.840000000000	-0.010764158187549	0.036069108286458
19.870000000000	-0.0093405990670686	0.036144979903962
19.900000000000	-0.0079222179924264	0.036138353194969
19.930000000000	-0.0065149100083212	0.036048885497937
19.960000000000	-0.0051247444190787	0.035876656610316
19.990000000000	-0.0037579488888729	0.035622199709802
20.020000000000	-0.0024208903940536	0.035286537053305
20.050000000000	-0.0011200508312668	0.034871220648467
20.080000000000	0.00013800514678008	0.034378377395339
20.110000000000	0.0013466725237358	0.033810757409035
20.140000000000	0.0024993607922134	0.033171783416297
20.170000000000	0.0035895631126283	0.032465598335886
20.200000000000	0.0046109408840627	0.031697107473225
20.230000000000	0.0055574239653804	0.030872011249847
20.260000000000	0.0064233257349763	0.029996824106473
20.290000000000	0.0072034710263099	0.029078875210726
20.320000000000	0.0078933337967762	0.028126286895750
20.350000000000	0.0084891802600644	0.027147927363684
20.380000000000	0.0089882122194756	0.026153335095628
20.410000000000	0.0093887045605484	0.025152613583407
20.440000000000	0.0096901303649922	0.024156296383357
20.470000000000	0.0098932669486945	0.023175184016057
20.500000000000	0.010000276339504	0.022220155812614
20.530000000000	0.010014754307970	0.021301961343561
20.560000000000	0.0099417430343403	0.020430997464382
20.590000000000	0.0097877038013797	0.019617078180189
20.620000000000	0.0095604476855685	0.018869205389456
20.650000000000	0.0092690239997766	0.018195349048040
20.680000000000	0.0089235681241450	0.017602245355520
20.710000000000	0.0085351122448579	0.017095221186900
